#Digilent WaveForms Network Analyzer - Bode
#Device Name: Discovery2
#Serial Number: SN:210321A35FCC
#Date Time: 2019-09-20 12:38:42.445
#Start: 1 Hz
#Stop: 1e+07 Hz
#Steps: 200
#Wavegen: Wavegen1
#Amplification: 1 X
#Settle: 10 ms
#MinPeriods: 16 
#Channel: Channel 2
#Range: 5.47028 V
#Offset: -7.92091e-07 V
#Relative: yes

Frequency (Hz),Channel 2 Magnitude (dB),Channel 2 Phase (*)
1,-50.57987295092003,170.214704934117
1.084365968689611,-49.1760778270611,169.5834230523221
1.175849554052158,-47.80803255994932,168.5983226297016
1.275051240713013,-46.42445738831708,167.8374818317171
1.382622173764656,-45.07114862579255,166.9835559346585
1.499268432786047,-43.69805126604298,166.0743412347481
1.625755666443793,-42.3099921689528,165.2187556673673
1.762914118095948,-40.96208049158161,164.0146681430818
1.9116440753857,-39.5893197518297,162.9161421859097
2.07292177959537,-38.24559119721388,161.6558629014113
2.247805833548725,-36.89261579817269,160.3947283123134
2.437444150122221,-35.56102677052451,158.9048842089117
2.643081486974109,-34.2253596633626,157.3295842435742
2.86606761694825,-32.89770413459159,155.6993343160495
3.107866187782014,-31.5909257602847,153.8900183078026
3.370064329271925,-30.28603711400818,151.9764126989565
3.654383070957254,-28.99908830261431,149.9829542494565
3.962688638701478,-27.71832846695358,147.806698197716
4.297004704320835,-26.45807166186405,145.4962251932092
4.659525668664678,-25.21615049908314,143.053550576822
5.052631065335679,-24.00026656183906,140.5015379619464
5.478901179593946,-22.80126115875262,137.7966407154678
5.94113398496504,-21.63016750755883,134.9766354970571
6.44236350872137,-20.48589767487385,132.0247993759704
6.985879746785249,-19.37098592942441,128.9594107933178
7.57525025877192,-18.28852468109622,125.7832918495331
8.214343584919423,-17.23725532824502,122.4910934236246
8.907354638610439,-16.22225984896997,119.1230438149229
9.658832241158688,-15.24073441594669,115.6617842492057
10.47370897959449,-14.29489628435565,112.13739929985
11.35733358343105,-13.38529149854229,108.5492080266517
12.31550603292826,-12.51310547980145,104.9207060719618
13.354515629299,-11.67816695335238,101.2509486654936
14.48118227674533,-10.88040793175503,97.55471836015195
15.70290124729378,-10.12152475695465,93.84131447240065
17.02769172225898,-9.399299400958526,90.11482649365391
18.46424942895543,-8.714994339438208,86.38728029354866
20.02200371815584,-8.068317793822706,82.67420275128819
21.71117945694501,-7.458805679342698,78.9714538061742
23.54286414322415,-6.886596366964749,75.29940190590945
25.52908068239516,-6.351757339017055,71.66279224783354
27.68286630392067,-5.853312975568947,68.07596135764948
30.01835813575592,-5.391095466497456,64.53866697564534
32.55088599835057,-4.964697640467334,61.06886757165073
35.29707302730657,-4.572866146733765,57.68033038881117
38.27494478516315,-4.214868868427405,54.37864987932757
41.50404757850472,-3.890408177710474,51.16673967405503
45.00557675700497,-3.602947771961452,48.07509677931587
48.80251583654424,-3.329695658255021,45.03269838489375
52.91978735958448,-3.100760840495798,42.23376186053292
57.38441648302393,-2.876099525769409,39.47656342147029
62.22570836730231,-2.688969981511229,36.89395150505126
67.475440531107,-2.523054015809059,34.42269159807043
73.16807143427192,-2.374952389630731,32.08583728509592
79.34096665797492,-2.244434981880591,29.88055738269924
86.03464416684491,-2.129817535042846,27.80102520685742
93.29304026284677,-2.028721690882895,25.85513831150416
101.1637979766207,-1.940550785454451,24.02474072756224
109.6985797892382,-1.863122191619002,22.3208117790474
118.9534067370321,-1.795914273101317,20.72809612678512
128.9890261253308,-1.736473588091247,19.24286189569025
139.8713102647239,-1.684788220216469,17.85837441161994
151.6716888470924,-1.638860881309045,16.5764152266337
164.4676177994663,-1.598556549341771,15.38288977890323
178.3430876931913,-1.563310459487171,14.27349380224754
193.3891750455232,-1.532300903286296,13.24439902539123
209.7046401323231,-1.505047871350642,12.29295782756519
227.3965752357927,-1.480253383474706,11.41052512688441
246.5811075822599,-1.458763643047434,10.59400644415116
267.3841615839949,-1.439637782279428,9.840460021454785
289.9422853882875,-1.422060425044358,9.142661782686623
314.40354715915,-1.406705539117114,8.496418754227861
340.9285069746814,-1.392728290084609,7.902740894108646
369.6912707195024,-1.380288223185616,7.354043670824804
400.8806328898465,-1.368302952350883,6.845697649087782
434.7013158125018,-1.35788053502163,6.377840159259883
471.3753134116719,-1.347618515471986,5.945492926695607
511.1433483440165,-1.338290228672279,5.550197199707512
554.2664520663095,-1.3294708072487,5.183993812657942
601.0276782070388,-1.321964743833687,4.849378195720693
651.733960488242,-1.314341069484776,4.542510499692696
706.7181273927491,-1.30650514308292,4.260373786682052
766.3410868007462,-1.300255965260507,4.003230438594215
830.9941949353387,-1.293309459852674,3.766719132812739
901.1018251665037,-1.286781760661398,3.551855667462149
977.1241535346502,-1.280173643410273,3.356822952209853
1059.560179277616,-1.273239853579394,3.179995755786251
1148.951000187309,-1.266154176641412,3.019115724235505
1245.883364295008,-1.259754794439467,2.877023854895647
1350.993521198028,-1.252691237683176,2.743836851387556
1464.971398307285,-1.244808842874142,2.629770012903306
1588.565129428053,-1.236187883651443,2.523364065045918
1722.585965398787,-1.228017045139181,2.432055134247491
1867.913599020783,-1.219088780212946,2.349069395988437
2025.501939230669,-1.209470234171136,2.271037880792292
2196.385372416545,-1.200159986443911,2.201609219116278
2381.685551976158,-1.187863022791692,2.145783019849546
2582.618760682675,-1.176034552048154,2.087177470103256
2800.503894183631,-1.164277235209725,2.029241984687459
3036.77111803546,-1.15102764637887,1.971282419028469
3292.971255097148,-1.137245874347233,1.91654036624837
3570.785964900463,-1.122627095822421,1.86082180126968
3872.038781812557,-1.107602848707101,1.803974711066807
4198.70708444391,-1.09421716359593,1.742839795519046
4552.935074866952,-1.07913752198419,1.678644715995127
4937.047852838999,-1.063750227606467,1.609729609018217
5353.566677410725,-1.04959406311244,1.532927001651295
5805.225516094895,-1.036494005896622,1.453450771816335
6294.988990221887,-1.023038522028573,1.373022374119088
6826.071834272392,-1.010410096723898,1.288632419910662
7401.959996915637,-0.9992279333076441,1.191965466988972
8026.433522257174,-0.9873816831126612,1.104663052704993
8703.591361485165,-0.9791569825811842,1.006266143035134
9437.87827777538,-0.9690020108867317,0.9165498421026541
10234.11402105454,-0.962177759739678,0.8210607672091612
11097.52496412071,-0.9544383283363224,0.7189486051804863
12033.77840777589,-0.9483043156399731,0.6199314777966265
13049.01978014402,-0.9420889734589671,0.5254310524950228
14149.91297434576,-0.9378219107807896,0.4223203145824357
15343.68408930013,-0.9327774261192272,0.3297470083941931
16638.16886076127,-0.9288596778289258,0.2397366586033627
18041.86409392072,-0.9247635534218718,0.1306897101212741
19563.98343517065,-0.9221272779217792,0.03637777895804106
21214.5178491063,-0.9201107739602515,-0.06455154714774025
23004.30119772919,-0.9184915630543675,-0.1673180155048328
24945.08135230319,-0.9160218101698892,-0.2709700535675097
27049.59730463134,-0.9151148617986669,-0.3720234795050601
29331.66278390042,-0.9136408729017578,-0.4858979245477926
31806.25692794119,-0.9119957306132607,-0.598979697046218
34489.6226040576,-0.9113116960237221,-0.7157820781835937
37399.37302478802,-0.9110030755465853,-0.8339389004792679
40554.60735840828,-0.9109954563659852,-0.966089285303168
43976.03609302721,-0.9124249975385592,-1.104760151131757
47686.11697714469,-0.9129907130983796,-1.238300733858125
51709.2024289676,-0.909232965994756,-1.428728427752745
56071.69938205464,-0.906835015390413,-1.519017701726938
60802.24261649422,-0.9120955633205662,-1.709234897412699
65931.88271333542,-0.9102034583958185,-1.900976640801389
71494.28986597578,-0.9112770675226149,-2.080306208871576
77525.97488629464,-0.910704970583962,-2.294505287545093
84066.52885618334,-0.9117643665063978,-2.519927839009029
91158.88299750819,-0.9139186943107467,-2.755853014356205
98849.59046625586,-0.9125143075010443,-3.016962430414457
107189.1319205128,-0.9147526611799954,-3.271763978826471
116232.2468679853,-0.9155284104911808,-3.568467927014282
126038.2929679729,-0.9176855419774625,-3.881734243487955
136671.6356462006,-0.9217231567782459,-4.227121444465261
148202.0705798858,-0.9219155823253808,-4.59942466023162
160705.2818261638,-0.9243621865778315,-5.007445093218536
174263.3386009651,-0.927628912604751,-5.443676589478827
188965.2339691212,-0.9322957700208884,-5.90632626556301
204907.4689815846,-0.9356759029256396,-6.409223000414443
222194.6860939523,-0.9427585035873187,-6.962681110869312
240940.3560239525,-0.9503342457816476,-7.533754824933879
261267.5225563329,-0.9532792307693599,-8.170810194978841
283309.6101839327,-0.9608994831837263,-8.855445536336212
307211.2998861756,-0.9697955202591934,-9.593848402035093
333129.4787934672,-0.976367592762203,-10.4101313684797
361234.269970943,-0.9833933331210389,-11.26983863097577
391710.149080926,-0.9930576400630493,-12.26335863587954
424757.1552536903,-1.005805294670369,-13.29763414952676
460592.2041145104,-1.017179585563871,-14.45911197280094
499450.5115855138,-1.03429747264234,-15.71261950403222
541587.137807947,-1.052745964817227,-17.08018731728588
587278.6613189484,-1.079520911009836,-18.59144671385823
636824.9944718593,-1.108948581457647,-20.21732395974501
690551.3520162323,-1.147092696079127,-22.02339734031069
748810.3857590018,-1.190372903057539,-23.99671308510688
811984.4993184009,-1.25239809767523,-26.19018230631633
880488.3581643464,-1.32682909031888,-28.56385502892318
954771.6114208066,-1.416346703871824,-31.2004505862467
1035321.843295661,-1.537918721140195,-34.03317881131592
1122667.773510813,-1.687429082653184,-37.13637283072174
1217382.727739661,-1.876487902514903,-40.50360208905094
1320088.400831418,-2.107549909512758,-43.98687971103708
1431458.93752348,-2.385747621558746,-47.71378013166692
1552225.357427049,-2.720212517977157,-51.5468930963337
1683180.353330956,-3.11198518628545,-55.49337169448883
1825183.494319043,-3.570526940698774,-59.46922191635336
1979166.867853557,-4.076883300275242,-63.3945459529175
2146141.197858405,-4.651780858564144,-67.37203623572421
2327202.478960411,-5.273468205900182,-70.9524636263954
2523539.170434765,-5.962292590851161,-74.46944280613144
2736439.99707467,-6.657038924654783,-77.95692471790744
2967302.408188869,-7.411127952096908,-80.9767533168158
3217641.750250738,-8.191625652496654,-83.88307116838037
3489101.213406776,-9.023054037986851,-86.47984666637167
3783462.617131927,-9.838892723730892,-88.79409154107356
4102658.105827191,-10.74568043797972,-91.10954701082008
4448782.831127585,-11.60432285014016,-93.23340393352822
4824108.704165372,-12.45530820246229,-95.10612729488766
5231099.308056266,-13.3947927809521,-97.17196072686347
5672426.068491975,-14.25388707064308,-99.02140189393837
6150985.7885805,-15.22124164601638,-100.688066562906
6669919.663030121,-16.20115856296224,-102.4548145541941
7232633.896483539,-17.09302365585769,-104.6429126005404
7842822.061337685,-18.11378987731393,-107.5715771315085
8504489.341802673,-19.28333241197291,-109.9736143358785
9221978.823334325,-20.10298874100264,-112.4740465541806
10000000,-21.20898080568609,-119.642573564526
