Freq.	(V(n007)/I(R4))-100
1.00000000000000e+001	(958.0110891844271dB,-16.4331866360898°)
1.00230523807790e+001	(957.8293745371038dB,-16.4689323129238°)
1.00461579027840e+001	(957.6469252420533dB,-16.5047465680426°)
1.00693166885180e+001	(957.4637387715009dB,-16.5406294743162°)
1.00925288607668e+001	(957.2798125927825dB,-16.5765811043018°)
1.01157945425990e+001	(957.0951441682747dB,-16.6126015302419°)
1.01391138573668e+001	(956.9097309554936dB,-16.6486908240604°)
1.01624869287070e+001	(956.7235704070886dB,-16.6848490573605°)
1.01859138805412e+001	(956.5366599708624dB,-16.7210763014212°)
1.02093948370768e+001	(956.3489970898124dB,-16.7573726271943°)
1.02329299228075e+001	(956.1605792021654dB,-16.7937381053017°)
1.02565192625141e+001	(955.971403741356dB,-16.830172806032°)
1.02801629812647e+001	(955.7814681361199dB,-16.8666767993379°)
1.03038612044162e+001	(955.5907698104768dB,-16.9032501548327°)
1.03276140576140e+001	(955.3993061837735dB,-16.9398929417875°)
1.03514216667934e+001	(955.2070746706827dB,-16.9766052291281°)
1.03752841581801e+001	(955.0140726813012dB,-17.013387085432°)
1.03992016582906e+001	(954.8202976211032dB,-17.0502385789251°)
1.04231742939330e+001	(954.6257468910169dB,-17.0871597774787°)
1.04472021922080e+001	(954.4304178874231dB,-17.1241507486064°)
1.04712854805090e+001	(954.2343080022216dB,-17.1612115594611°)
1.04954242865232e+001	(954.0374146228174dB,-17.1983422768315°)
1.05196187382322e+001	(953.8397351322001dB,-17.2355429671394°)
1.05438689639126e+001	(953.641266908941dB,-17.2728136964362°)
1.05681750921366e+001	(953.4420073272169dB,-17.3101545303997°)
1.05925372517729e+001	(953.2419537568856dB,-17.3475655343313°)
1.06169555719872e+001	(953.0411035634884dB,-17.3850467731523°)
1.06414301822431e+001	(952.8394541082693dB,-17.4225983114012°)
1.06659612123026e+001	(952.637002748256dB,-17.46022021323°)
1.06905487922266e+001	(952.4337468362262dB,-17.4979125424014°)
1.07151930523761e+001	(952.2296837208278dB,-17.5356753622851°)
1.07398941234124e+001	(952.0248107465176dB,-17.5735087358549°)
1.07646521362983e+001	(951.8191252536805dB,-17.6114127256854°)
1.07894672222983e+001	(951.612624578621dB,-17.6493873939485°)
1.08143395129794e+001	(951.4053060535881dB,-17.6874328024104°)
1.08392691402120e+001	(951.197167006865dB,-17.725549012428°)
1.08642562361706e+001	(950.9882047627558dB,-17.7637360849458°)
1.08893009333343e+001	(950.7784166416259dB,-17.8019940804927°)
1.09144033644875e+001	(950.5677999599909dB,-17.8403230591782°)
1.09395636627209e+001	(950.3563520304635dB,-17.8787230806895°)
1.09647819614318e+001	(950.144070161911dB,-17.9171942042879°)
1.09900583943252e+001	(949.9309516593789dB,-17.9557364888056°)
1.10153930954141e+001	(949.7169938242063dB,-17.9943499926423°)
1.10407861990207e+001	(949.5021939540272dB,-18.0330347737616°)
1.10662378397766e+001	(949.2865493428443dB,-18.0717908896879°)
1.10917481526240e+001	(949.0700572810281dB,-18.1106183975027°)
1.11173172728159e+001	(948.8527150554179dB,-18.1495173538415°)
1.11429453359173e+001	(948.6345199492775dB,-18.18848781489°)
1.11686324778056e+001	(948.4154692424262dB,-18.227529836381°)
1.11943788346715e+001	(948.1955602112206dB,-18.2666434735908°)
1.12201845430196e+001	(947.9747901286418dB,-18.3058287813357°)
1.12460497396692e+001	(947.7531562642918dB,-18.3450858139686°)
1.12719745617551e+001	(947.530655884491dB,-18.3844146253754°)
1.12979591467279e+001	(947.3072862522756dB,-18.4238152689716°)
1.13240036323555e+001	(947.0830446274598dB,-18.4632877976991°)
1.13501081567231e+001	(946.8579282667147dB,-18.5028322640219°)
1.13762728582343e+001	(946.6319344235492dB,-18.5424487199235°)
1.14024978756117e+001	(946.4050603484119dB,-18.5821372169026°)
1.14287833478977e+001	(946.1773032887136dB,-18.62189780597°)
1.14551294144553e+001	(945.9486604888717dB,-18.6617305376449°)
1.14815362149688e+001	(945.7191291903996dB,-18.7016354619515°)
1.15080038894443e+001	(945.4887066318823dB,-18.7416126284152°)
1.15345325782109e+001	(945.2573900490786dB,-18.7816620860591°)
1.15611224219210e+001	(945.02517667497dB,-18.8217838834004°)
1.15877735615512e+001	(944.7920637397847dB,-18.8619780684469°)
1.16144861384034e+001	(944.5580484710798dB,-18.9022446886934°)
1.16412602941049e+001	(944.3231280937491dB,-18.9425837911177°)
1.16680961706096e+001	(944.0872998301251dB,-18.9829954221777°)
1.16949939101987e+001	(943.8505608999859dB,-19.0234796278069°)
1.17219536554813e+001	(943.6129085206609dB,-19.0640364534115°)
1.17489755493953e+001	(943.374339907025dB,-19.1046659438664°)
1.17760597352080e+001	(943.134852271578dB,-19.1453681435114°)
1.18032063565173e+001	(942.8944428245238dB,-19.1861430961479°)
1.18304155572516e+001	(942.653108773775dB,-19.2269908450348°)
1.18576874816716e+001	(942.4108473250509dB,-19.2679114328854°)
1.18850222743701e+001	(942.1676556819187dB,-19.3089049018629°)
1.19124200802737e+001	(941.9235310458366dB,-19.3499712935775°)
1.19398810446427e+001	(941.6784706162366dB,-19.3911106490822°)
1.19674053130724e+001	(941.4324715905605dB,-19.432323008869°)
1.19949930314937e+001	(941.1855311643307dB,-19.4736084128657°)
1.20226443461741e+001	(940.9376465311943dB,-19.5149669004317°)
1.20503594037179e+001	(940.6888148829875dB,-19.5563985103542°)
1.20781383510678e+001	(940.4390334098157dB,-19.597903280845°)
1.21059813355048e+001	(940.1882993000949dB,-19.6394812495361°)
1.21338885046497e+001	(939.9366097405814dB,-19.6811324534762°)
1.21618600064636e+001	(939.6839619165162dB,-19.7228569291272°)
1.21898959892486e+001	(939.430353011603dB,-19.7646547123599°)
1.22179966016487e+001	(939.1757802080949dB,-19.8065258384505°)
1.22461619926504e+001	(938.9202406868991dB,-19.8484703420769°)
1.22743923115840e+001	(938.6637316275709dB,-19.8904882573146°)
1.23026877081238e+001	(938.406250208443dB,-19.9325796176331°)
1.23310483322890e+001	(938.147793606636dB,-19.9747444558922°)
1.23594743344450e+001	(937.8883589981637dB,-20.0169828043378°)
1.23879658653036e+001	(937.6279435579668dB,-20.0592946945984°)
1.24165230759240e+001	(937.3665444600106dB,-20.1016801576811°)
1.24451461177138e+001	(937.1041588773262dB,-20.1441392239678°)
1.24738351424294e+001	(936.8407839820795dB,-20.1866719232115°)
1.25025903021771e+001	(936.5764169456568dB,-20.2292782845321°)
1.25314117494141e+001	(936.3110549387235dB,-20.2719583364129°)
1.25602996369487e+001	(936.0446951312692dB,-20.3147121066965°)
1.25892541179416e+001	(935.7773346927308dB,-20.3575396225812°)
1.26182753459066e+001	(935.5089707920107dB,-20.4004409106166°)
1.26473634747114e+001	(935.239600597555dB,-20.4434159967003°)
1.26765186585784e+001	(934.9692212774659dB,-20.4864649060738°)
1.27057410520853e+001	(934.6978299995337dB,-20.5295876633185°)
1.27350308101665e+001	(934.425423931297dB,-20.5727842923518°)
1.27643880881134e+001	(934.1520002401757dB,-20.6160548164235°)
1.27938130415752e+001	(933.8775560934633dB,-20.6593992581114°)
1.28233058265601e+001	(933.6020886584719dB,-20.702817639318°)
1.28528665994361e+001	(933.3255951025654dB,-20.7463099812659°)
1.28824955169313e+001	(933.0480725932567dB,-20.7898763044947°)
1.29121927361353e+001	(932.7695182982582dB,-20.8335166288561°)
1.29419584144998e+001	(932.4899293855879dB,-20.8772309735109°)
1.29717927098395e+001	(932.2093030236189dB,-20.9210193569244°)
1.30016957803328e+001	(931.927636381176dB,-20.964881796863°)
1.30316677845229e+001	(931.6449266275856dB,-21.0088183103897°)
1.30617088813183e+001	(931.361170932803dB,-21.0528289138608°)
1.30918192299940e+001	(931.076366467444dB,-21.0969136229212°)
1.31219989901920e+001	(930.790510402882dB,-21.1410724525013°)
1.31522483219223e+001	(930.503599911335dB,-21.1853054168125°)
1.31825673855640e+001	(930.2156321659395dB,-21.2296125293432°)
1.32129563418657e+001	(929.926604340828dB,-21.2739938028551°)
1.32434153519466e+001	(929.6365136112032dB,-21.3184492493794°)
1.32739445772973e+001	(929.3453571534585dB,-21.3629788802124°)
1.33045441797808e+001	(929.0531321451998dB,-21.4075827059118°)
1.33352143216332e+001	(928.7598357653764dB,-21.4522607362927°)
1.33659551654643e+001	(928.465465194376dB,-21.4970129804238°)
1.33967668742593e+001	(928.1700176140282dB,-21.541839446623°)
1.34276496113785e+001	(927.8734902078088dB,-21.5867401424541°)
1.34586035405594e+001	(927.5758801608008dB,-21.631715074722°)
1.34896288259164e+001	(927.2771846598962dB,-21.6767642494697°)
1.35207256319427e+001	(926.9774008937798dB,-21.7218876719734°)
1.35518941235103e+001	(926.6765260530979dB,-21.7670853467391°)
1.35831344658714e+001	(926.3745573305117dB,-21.8123572774987°)
1.36144468246594e+001	(926.071491920751dB,-21.8577034672056°)
1.36458313658891e+001	(925.767327020793dB,-21.9031239180311°)
1.36772882559584e+001	(925.4620598298586dB,-21.9486186313602°)
1.37088176616484e+001	(925.1556875495481dB,-21.9941876077878°)
1.37404197501251e+001	(924.848207383928dB,-22.0398308471148°)
1.37720946889394e+001	(924.5396165396373dB,-22.0855483483438°)
1.38038426460287e+001	(924.2299122259406dB,-22.1313401096755°)
1.38356637897177e+001	(923.919091654852dB,-22.1772061285046°)
1.38675582887188e+001	(923.6071520411956dB,-22.2231464014158°)
1.38995263121334e+001	(923.294090602767dB,-22.2691609241799°)
1.39315680294529e+001	(922.9799045603286dB,-22.3152496917499°)
1.39636836105593e+001	(922.6645911378109dB,-22.361412698257°)
1.39958732257261e+001	(922.3481475622926dB,-22.4076499370064°)
1.40281370456195e+001	(922.0305710642049dB,-22.4539614004739°)
1.40604752412990e+001	(921.7118588773814dB,-22.5003470803015°)
1.40928879842186e+001	(921.3920082391029dB,-22.5468069672935°)
1.41253754462274e+001	(921.0710163903123dB,-22.593341051413°)
1.41579377995707e+001	(920.7488805755912dB,-22.6399493217773°)
1.41905752168908e+001	(920.4255980433612dB,-22.6866317666546°)
1.42232878712281e+001	(920.1011660458737dB,-22.7333883734595°)
1.42560759360218e+001	(919.7755818394392dB,-22.7802191287495°)
1.42889395851109e+001	(919.4488426844159dB,-22.827124018221°)
1.43218789927353e+001	(919.1209458453534dB,-22.8741030267054°)
1.43548943335364e+001	(918.7918885911116dB,-22.921156138165°)
1.43879857825583e+001	(918.4616681949298dB,-22.9682833356891°)
1.44211535152486e+001	(918.1302819345659dB,-23.0154846014905°)
1.44543977074592e+001	(917.7977270923406dB,-23.0627599169013°)
1.44877185354475e+001	(917.4640009553162dB,-23.1101092623689°)
1.45211161758773e+001	(917.1291008153235dB,-23.1575326174525°)
1.45545908058195e+001	(916.7930239691408dB,-23.2050299608188°)
1.45881426027534e+001	(916.4557677185231dB,-23.2526012702384°)
1.46217717445671e+001	(916.117329370396dB,-23.3002465225819°)
1.46554784095590e+001	(915.7777062368625dB,-23.3479656938163°)
1.46892627764385e+001	(915.4368956353861dB,-23.3957587590003°)
1.47231250243271e+001	(915.0948948888722dB,-23.4436256922817°)
1.47570653327588e+001	(914.751701325767dB,-23.4915664668924°)
1.47910838816819e+001	(914.4073122801689dB,-23.5395810551453°)
1.48251808514594e+001	(914.0617250919393dB,-23.5876694284305°)
1.48593564228699e+001	(913.714937106836dB,-23.635831557211°)
1.48936107771090e+001	(913.3669456765801dB,-23.6840674110192°)
1.49279440957898e+001	(913.0177481589785dB,-23.7323769584532°)
1.49623565609442e+001	(912.6673419180686dB,-23.780760167173°)
1.49968483550236e+001	(912.3157243241915dB,-23.8292170038965°)
1.50314196609001e+001	(911.9628927540996dB,-23.8777474343958°)
1.50660706618673e+001	(911.6088445911056dB,-23.9263514234941°)
1.51008015416413e+001	(911.2535772251623dB,-23.9750289350606°)
1.51356124843619e+001	(910.8970880530061dB,-24.0237799320084°)
1.51705036745932e+001	(910.5393744782018dB,-24.0726043762894°)
1.52054752973248e+001	(910.1804339113759dB,-24.1215022288913°)
1.52405275379728e+001	(909.8202637702018dB,-24.1704734498339°)
1.52756605823806e+001	(909.4588614796138dB,-24.2195179981653°)
1.53108746168202e+001	(909.096224471861dB,-24.268635831958°)
1.53461698279928e+001	(908.7323501866609dB,-24.3178269083058°)
1.53815464030302e+001	(908.367236071287dB,-24.3670911833195°)
1.54170045294954e+001	(908.0008795807056dB,-24.4164286121238°)
1.54525443953840e+001	(907.6332781776798dB,-24.4658391488534°)
1.54881661891247e+001	(907.2644293329028dB,-24.5153227466495°)
1.55238700995807e+001	(906.8943305251124dB,-24.564879357656°)
1.55596563160506e+001	(906.5229792411877dB,-24.6145089330164°)
1.55955250282694e+001	(906.1503729762965dB,-24.6642114228697°)
1.56314764264094e+001	(905.7765092340029dB,-24.7139867763471°)
1.56675107010813e+001	(905.4013855263842dB,-24.7638349415686°)
1.57036280433354e+001	(905.024999374161dB,-24.8137558656393°)
1.57398286446620e+001	(904.6473483067967dB,-24.8637494946456°)
1.57761126969933e+001	(904.26842986265dB,-24.9138157736525°)
1.58124803927037e+001	(903.8882415890746dB,-24.9639546466993°)
1.58489319246110e+001	(903.5067810425469dB,-25.0141660567968°)
1.58854674859776e+001	(903.1240457887878dB,-25.0644499459234°)
1.59220872705115e+001	(902.7400334028954dB,-25.1148062550217°)
1.59587914723672e+001	(902.3547414694365dB,-25.1652349239956°)
1.59955802861465e+001	(901.968167582617dB,-25.2157358917062°)
1.60324539069002e+001	(901.5803093463701dB,-25.2663090959691°)
1.60694125301286e+001	(901.1911643744867dB,-25.3169544735503°)
1.61064563517825e+001	(900.8007302907776dB,-25.3676719601638°)
1.61435855682647e+001	(900.4090047291232dB,-25.4184614904673°)
1.61808003764305e+001	(900.0159853336655dB,-25.4693229980597°)
1.62181009735891e+001	(899.6216697589044dB,-25.5202564154773°)
1.62554875575047e+001	(899.2260556698573dB,-25.5712616741908°)
1.62929603263970e+001	(898.8291407421103dB,-25.6223387046021°)
1.63305194789432e+001	(898.4309226620414dB,-25.6734874360408°)
1.63681652142779e+001	(898.0313991268735dB,-25.7247077967614°)
1.64058977319952e+001	(897.6305678448294dB,-25.7759997139396°)
1.64437172321491e+001	(897.2284265352824dB,-25.8273631136696°)
1.64816239152549e+001	(896.8249729288208dB,-25.8787979209609°)
1.65196179822900e+001	(896.4202047674609dB,-25.9303040597351°)
1.65576996346951e+001	(896.0141198047069dB,-25.9818814528225°)
1.65958690743754e+001	(895.6067158057066dB,-26.0335300219597°)
1.66341265037015e+001	(895.197990547392dB,-26.0852496877859°)
1.66724721255104e+001	(894.78794181858dB,-26.1370403698405°)
1.67109061431069e+001	(894.3765674201347dB,-26.1889019865593°)
1.67494287602642e+001	(893.9638651650605dB,-26.2408344552723°)
1.67880401812254e+001	(893.5498328786819dB,-26.2928376922005°)
1.68267406107045e+001	(893.1344683987354dB,-26.3449116124525°)
1.68655302538872e+001	(892.7177695754968dB,-26.3970561300223°)
1.69044093164324e+001	(892.2997342719599dB,-26.4492711577861°)
1.69433780044731e+001	(891.8803603638963dB,-26.5015566074994°)
1.69824365246172e+001	(891.4596457400647dB,-26.5539123897941°)
1.70215850839493e+001	(891.0375883022759dB,-26.6063384141759°)
1.70608238900310e+001	(890.6141859655836dB,-26.6588345890217°)
1.71001531509027e+001	(890.1894366583437dB,-26.711400821576°)
1.71395730750841e+001	(889.7633383224435dB,-26.7640370179493°)
1.71790838715757e+001	(889.3358889133498dB,-26.8167430831146°)
1.72186857498599e+001	(888.9070864002797dB,-26.8695189209051°)
1.72583789199018e+001	(888.4769287663255dB,-26.9223644340112°)
1.72981635921508e+001	(888.0454140086065dB,-26.9752795239783°)
1.73380399775412e+001	(887.6125401383634dB,-27.0282640912043°)
1.73780082874935e+001	(887.178305181148dB,-27.0813180349362°)
1.74180687339159e+001	(886.7427071768981dB,-27.1344412532686°)
1.74582215292048e+001	(886.3057441801177dB,-27.1876336431406°)
1.74984668862464e+001	(885.8674142599695dB,-27.2408951003332°)
1.75388050184174e+001	(885.427715500452dB,-27.2942255194678°)
1.75792361395867e+001	(884.9866460005094dB,-27.3476247940023°)
1.76197604641161e+001	(884.5442038741719dB,-27.4010928162301°)
1.76603782068614e+001	(884.1003872506933dB,-27.4546294772771°)
1.77010895831740e+001	(883.6551942746755dB,-27.508234667099°)
1.77418948089014e+001	(883.2086231062032dB,-27.5619082744802°)
1.77827941003890e+001	(882.7606719209947dB,-27.6156501870303°)
1.78237876744807e+001	(882.3113389105447dB,-27.6694602911824°)
1.78648757485203e+001	(881.8606222822274dB,-27.7233384721912°)
1.79060585403527e+001	(881.4085202594233dB,-27.7772846141301°)
1.79473362683250e+001	(880.955031081723dB,-27.83129859989°)
1.79887091512877e+001	(880.5001530049996dB,-27.8853803111763°)
1.80301774085955e+001	(880.043884301559dB,-27.9395296285075°)
1.80717412601090e+001	(879.5862232602702dB,-27.9937464312127°)
1.81134009261958e+001	(879.1271681867308dB,-28.0480305974301°)
1.81551566277311e+001	(878.6667174033635dB,-28.1023820041045°)
1.81970085860996e+001	(878.2048692495862dB,-28.1568005269858°)
1.82389570231961e+001	(877.7416220819035dB,-28.211286040627°)
1.82810021614272e+001	(877.2769742741082dB,-28.2658384183822°)
1.83231442237119e+001	(876.8109242173339dB,-28.3204575324049°)
1.83653834334832e+001	(876.3434703202582dB,-28.3751432536463°)
1.84077200146893e+001	(875.8746110092113dB,-28.4298954518535°)
1.84501541917945e+001	(875.4043447283091dB,-28.4847139955674°)
1.84926861897805e+001	(874.9326699396049dB,-28.5395987521218°)
1.85353162341479e+001	(874.4595851231727dB,-28.5945495876413°)
1.85780445509167e+001	(873.9850887773343dB,-28.6495663670396°)
1.86208713666284e+001	(873.5091794187066dB,-28.7046489540181°)
1.86637969083464e+001	(873.031855582374dB,-28.7597972110646°)
1.87068214036578e+001	(872.553115822035dB,-28.8150109994513°)
1.87499450806739e+001	(872.0729587101044dB,-28.870290179234°)
1.87931681680324e+001	(871.5913828378784dB,-28.92563460925°)
1.88364908948977e+001	(871.1083868156385dB,-28.9810441471173°)
1.88799134909627e+001	(870.623969272821dB,-29.0365186492332°)
1.89234361864495e+001	(870.1381288581139dB,-29.0920579707725°)
1.89670592121112e+001	(869.6508642396099dB,-29.1476619656871°)
1.90107827992327e+001	(869.162174104968dB,-29.203330486704°)
1.90546071796322e+001	(868.6720571614769dB,-29.2590633853245°)
1.90985325856621e+001	(868.1805121362567dB,-29.3148605118234°)
1.91425592502106e+001	(867.6875377763354dB,-29.3707217152471°)
1.91866874067026e+001	(867.1931328488353dB,-29.4266468434135°)
1.92309172891013e+001	(866.6972961410712dB,-29.4826357429103°)
1.92752491319091e+001	(866.2000264606951dB,-29.5386882590943°)
1.93196831701690e+001	(865.7013226358116dB,-29.5948042360905°)
1.93642196394658e+001	(865.2011835151197dB,-29.6509835167914°)
1.94088587759275e+001	(864.6996079680567dB,-29.7072259428557°)
1.94536008162263e+001	(864.1965948849253dB,-29.7635313547082°)
1.94984459975802e+001	(863.6921431769945dB,-29.8198995915383°)
1.95433945577537e+001	(863.1862517766776dB,-29.8763304913°)
1.95884467350596e+001	(862.6789196376204dB,-29.9328238907107°)
1.96336027683602e+001	(862.1701457348402dB,-29.9893796252511°)
1.96788628970682e+001	(861.6599290648927dB,-30.0459975291642°)
1.97242273611483e+001	(861.1482686459348dB,-30.1026774354551°)
1.97696964011183e+001	(860.6351635179149dB,-30.1594191758903°)
1.98152702580507e+001	(860.120612742666dB,-30.2162225809975°)
1.98609491735734e+001	(859.6046154040483dB,-30.273087480065°)
1.99067333898716e+001	(859.0871706080569dB,-30.3300137011416°)
1.99526231496885e+001	(858.5682774829696dB,-30.3870010710362°)
1.99986186963271e+001	(858.0479351794827dB,-30.4440494153174°)
2.00447202736513e+001	(857.526142870793dB,-30.5011585583138°)
2.00909281260870e+001	(857.0028997527651dB,-30.5583283231132°)
2.01372424986236e+001	(856.4782050440557dB,-30.6155585315631°)
2.01836636368153e+001	(855.9520579862102dB,-30.6728490042703°)
2.02301917867824e+001	(855.4244578437911dB,-30.730199560601°)
2.02768271952125e+001	(854.8954039045407dB,-30.7876100186809°)
2.03235701093619e+001	(854.3648954794405dB,-30.8450801953952°)
2.03704207770569e+001	(853.8329319029154dB,-30.902609906389°)
2.04173794466950e+001	(853.2995125328647dB,-30.960198966067°)
2.04644463672464e+001	(852.7646367508478dB,-31.0178471875942°)
2.05116217882553e+001	(852.2283039622dB,-31.0755543828962°)
2.05589059598411e+001	(851.6905135961154dB,-31.1333203626591°)
2.06062991326997e+001	(851.1512651057969dB,-31.1911449363304°)
2.06538015581050e+001	(850.6105579685758dB,-31.2490279121192°)
2.07014134879101e+001	(850.0683916860206dB,-31.3069690969967°)
2.07491351745488e+001	(849.5247657840495dB,-31.3649682966968°)
