Freq.	V(n002)/I(R3)
1.00000000000000e+001	(88170.49909296191dB,169.590552503643°)
1.00230523807790e+001	(88163.88166639548dB,169.613928275916°)
1.00461579027840e+001	(88157.29400436261dB,169.637253697701°)
1.00693166885180e+001	(88150.73597392239dB,169.660528861821°)
1.00925288607668e+001	(88144.20744278967dB,169.683753861045°)
1.01157945425990e+001	(88137.70827922066dB,169.706928788069°)
1.01391138573668e+001	(88131.2383520374dB,169.730053735526°)
1.01624869287070e+001	(88124.79753058315dB,169.753128795973°)
1.01859138805412e+001	(88118.38568487538dB,169.77615406191°)
1.02093948370768e+001	(88112.00268538234dB,169.799129625759°)
1.02329299228075e+001	(88105.6484031896dB,169.822055579876°)
1.02565192625141e+001	(88099.32270990752dB,169.844932016543°)
1.02801629812647e+001	(88093.02547768204dB,169.867759027969°)
1.03038612044162e+001	(88086.75657925445dB,169.890536706295°)
1.03276140576140e+001	(88080.51588789377dB,169.913265143589°)
1.03514216667934e+001	(88074.30327745657dB,169.935944431846°)
1.03752841581801e+001	(88068.11862222909dB,169.958574662979°)
1.03992016582906e+001	(88061.96179713373dB,169.981155928834°)
1.04231742939330e+001	(88055.83267767781dB,170.003688321185°)
1.04472021922080e+001	(88049.73113971206dB,170.02617193171°)
1.04712854805090e+001	(88043.65705988195dB,170.048606852041°)
1.04954242865232e+001	(88037.61031516085dB,170.070993173706°)
1.05196187382322e+001	(88031.59078319262dB,170.093330988173°)
1.05438689639126e+001	(88025.59834194584dB,170.115620386808°)
1.05681750921366e+001	(88019.63287021866dB,170.13786146093°)
1.05925372517729e+001	(88013.69424707792dB,170.160054301752°)
1.06169555719872e+001	(88007.78235222037dB,170.182199000417°)
1.06414301822431e+001	(88001.89706583289dB,170.204295647983°)
1.06659612123026e+001	(87996.03826863984dB,170.226344335431°)
1.06905487922266e+001	(87990.20584186979dB,170.248345153655°)
1.07151930523761e+001	(87984.3996672912dB,170.270298193472°)
1.07398941234124e+001	(87978.61962716245dB,170.292203545611°)
1.07646521362983e+001	(87972.86560419638dB,170.314061300711°)
1.07894672222983e+001	(87967.13748173587dB,170.335871549343°)
1.08143395129794e+001	(87961.43514352512dB,170.357634381977°)
1.08392691402120e+001	(87955.75847388624dB,170.379349889008°)
1.08642562361706e+001	(87950.10735757071dB,170.401018160736°)
1.08893009333343e+001	(87944.48167987927dB,170.422639287381°)
1.09144033644875e+001	(87938.88132653179dB,170.444213359066°)
1.09395636627209e+001	(87933.30618393343dB,170.465740465847°)
1.09647819614318e+001	(87927.75613878918dB,170.48722069767°)
1.09900583943252e+001	(87922.23107832808dB,170.508654144397°)
1.10153930954141e+001	(87916.73089037678dB,170.530040895811°)
1.10407861990207e+001	(87911.2554630973dB,170.551381041591°)
1.10662378397766e+001	(87905.80468523616dB,170.572674671332°)
1.10917481526240e+001	(87900.37844609712dB,170.593921874551°)
1.11173172728159e+001	(87894.97663522922dB,170.615122740646°)
1.11429453359173e+001	(87889.59914286605dB,170.636277358943°)
1.11686324778056e+001	(87884.24585964685dB,170.657385818671°)
1.11943788346715e+001	(87878.91667678041dB,170.678448208976°)
1.12201845430196e+001	(87873.6114856711dB,170.69946461888°)
1.12460497396692e+001	(87868.33017857543dB,170.720435137351°)
1.12719745617551e+001	(87863.07264783775dB,170.741359853224°)
1.12979591467279e+001	(87857.83878668204dB,170.762238855282°)
1.13240036323555e+001	(87852.62848844506dB,170.783072232175°)
1.13501081567231e+001	(87847.4416470899dB,170.803860072476°)
1.13762728582343e+001	(87842.27815704037dB,170.824602464661°)
1.14024978756117e+001	(87837.13791305748dB,170.845299497096°)
1.14287833478977e+001	(87832.02081059602dB,170.865951258075°)
1.14551294144553e+001	(87826.92674529056dB,170.886557835768°)
1.14815362149688e+001	(87821.85561343763dB,170.907119318265°)
1.15080038894443e+001	(87816.80731175537dB,170.927635793557°)
1.15345325782109e+001	(87811.78173731333dB,170.948107349526°)
1.15611224219210e+001	(87806.77878767088dB,170.968534073959°)
1.15877735615512e+001	(87801.79836085885dB,170.988916054546°)
1.16144861384034e+001	(87796.84035541554dB,171.009253378883°)
1.16412602941049e+001	(87791.90467022294dB,171.029546134457°)
1.16680961706096e+001	(87786.99120457497dB,171.04979440865°)
1.16949939101987e+001	(87782.09985829011dB,171.069998288752°)
1.17219536554813e+001	(87777.23053169422dB,171.09015786196°)
1.17489755493953e+001	(87772.3831253257dB,171.110273215344°)
1.17760597352080e+001	(87767.55754034087dB,171.130344435892°)
1.18032063565173e+001	(87762.7536782949dB,171.150371610487°)
1.18304155572516e+001	(87757.97144111936dB,171.170354825903°)
1.18576874816716e+001	(87753.21073123367dB,171.190294168815°)
1.18850222743701e+001	(87748.47145145107dB,171.210189725794°)
1.19124200802737e+001	(87743.75350498158dB,171.230041583302°)
1.19398810446427e+001	(87739.0567955897dB,171.24984982771°)
1.19674053130724e+001	(87734.3812272554dB,171.269614545265°)
1.19949930314937e+001	(87729.72670453019dB,171.289335822124°)
1.20226443461741e+001	(87725.09313238562dB,171.309013744337°)
1.20503594037179e+001	(87720.48041607533dB,171.328648397838°)
1.20781383510678e+001	(87715.88846147309dB,171.348239868472°)
1.21059813355048e+001	(87711.31717471543dB,171.367788241966°)
1.21338885046497e+001	(87706.76646234709dB,171.387293603938°)
1.21618600064636e+001	(87702.2362314325dB,171.406756039911°)
1.21898959892486e+001	(87697.72638927886dB,171.426175635284°)
1.22179966016487e+001	(87693.23684378722dB,171.445552475367°)
1.22461619926504e+001	(87688.76750311423dB,171.464886645348°)
1.22743923115840e+001	(87684.31827592602dB,171.484178230318°)
1.23026877081238e+001	(87679.88907118108dB,171.503427315245°)
1.23310483322890e+001	(87675.47979836517dB,171.522633985006°)
1.23594743344450e+001	(87671.09036725007dB,171.541798324355°)
1.23879658653036e+001	(87666.72068804593dB,171.560920417942°)
1.24165230759240e+001	(87662.37067137507dB,171.580000350309°)
1.24451461177138e+001	(87658.04022826024dB,171.599038205887°)
1.24738351424294e+001	(87653.72927001074dB,171.61803406899°)
1.25025903021771e+001	(87649.43770848861dB,171.636988023836°)
1.25314117494141e+001	(87645.16545586208dB,171.655900154523°)
1.25602996369487e+001	(87640.91242461432dB,171.674770545032°)
1.25892541179416e+001	(87636.67852774257dB,171.693599279248°)
1.26182753459066e+001	(87632.46367858206dB,171.712386440936°)
1.26473634747114e+001	(87628.26779081406dB,171.731132113749°)
1.26765186585784e+001	(87624.09077851979dB,171.749836381229°)
1.27057410520853e+001	(87619.93255617039dB,171.768499326806°)
1.27350308101665e+001	(87615.79303860385dB,171.787121033798°)
1.27643880881134e+001	(87611.67214101186dB,171.805701585408°)
1.27938130415752e+001	(87607.56977902076dB,171.824241064732°)
1.28233058265601e+001	(87603.48586857223dB,171.842739554746°)
1.28528665994361e+001	(87599.42032598188dB,171.861197138317°)
1.28824955169313e+001	(87595.37306800591dB,171.8796138982°)
1.29121927361353e+001	(87591.34401166002dB,171.89798991703°)
1.29419584144998e+001	(87587.33307438628dB,171.916325277332°)
1.29717927098395e+001	(87583.34017400602dB,171.934620061519°)
1.30016957803328e+001	(87579.36522867317dB,171.952874351886°)
1.30316677845229e+001	(87575.40815687946dB,171.971088230612°)
1.30617088813183e+001	(87571.46887756529dB,171.98926177977°)
1.30918192299940e+001	(87567.54730992636dB,172.007395081305°)
1.31219989901920e+001	(87563.64337354891dB,172.025488217055°)
1.31522483219223e+001	(87559.75698842837dB,172.043541268744°)
1.31825673855640e+001	(87555.88807484353dB,172.061554317975°)
1.32129563418657e+001	(87552.03655342013dB,172.079527446236°)
1.32434153519466e+001	(87548.2023452476dB,172.097460734906°)
1.32739445772973e+001	(87544.38537163087dB,172.11535426524°)
1.33045441797808e+001	(87540.58555427205dB,172.133208118379°)
1.33352143216332e+001	(87536.80281524512dB,172.151022375348°)
1.33659551654643e+001	(87533.0370769912dB,172.168797117062°)
1.33967668742593e+001	(87529.28826217519dB,172.186532424304°)
1.34276496113785e+001	(87525.5562938848dB,172.204228377749°)
1.34586035405594e+001	(87521.84109561698dB,172.221885057962°)
1.34896288259164e+001	(87518.14259103012dB,172.239502545373°)
1.35207256319427e+001	(87514.460704326dB,172.257080920314°)
1.35518941235103e+001	(87510.79535988554dB,172.274620262985°)
1.35831344658714e+001	(87507.14648248549dB,172.292120653475°)
1.36144468246594e+001	(87503.51399728497dB,172.309582171758°)
1.36458313658891e+001	(87499.89782964371dB,172.327004897677°)
1.36772882559584e+001	(87496.2979053733dB,172.344388910972°)
1.37088176616484e+001	(87492.71415054587dB,172.361734291253°)
1.37404197501251e+001	(87489.1464915993dB,172.379041118019°)
1.37720946889394e+001	(87485.59485532572dB,172.396309470652°)
1.38038426460287e+001	(87482.05916875883dB,172.413539428406°)
1.38356637897177e+001	(87478.53935928884dB,172.430731070422°)
1.38675582887188e+001	(87475.03535467117dB,172.447884475724°)
1.38995263121334e+001	(87471.54708294132dB,172.464999723214°)
1.39315680294529e+001	(87468.07447246811dB,172.482076891674°)
1.39636836105593e+001	(87464.61745191459dB,172.499116059768°)
1.39958732257261e+001	(87461.1759502785dB,172.51611730604°)
1.40281370456195e+001	(87457.74989688727dB,172.533080708916°)
1.40604752412990e+001	(87454.33922140463dB,172.550006346703°)
1.40928879842186e+001	(87450.94385373218dB,172.566894297584°)
1.41253754462274e+001	(87447.56372414505dB,172.583744639627°)
1.41579377995707e+001	(87444.19876311262dB,172.600557450769°)
1.41905752168908e+001	(87440.84890162069dB,172.617332808846°)
1.42232878712281e+001	(87437.51407084824dB,172.634070791561°)
1.42560759360218e+001	(87434.1942022537dB,172.6507714765°)
1.42889395851109e+001	(87430.88922763626dB,172.667434941126°)
1.43218789927353e+001	(87427.59907903975dB,172.684061262779°)
1.43548943335364e+001	(87424.32368895368dB,172.700650518692°)
1.43879857825583e+001	(87421.06299003906dB,172.717202785964°)
1.44211535152486e+001	(87417.8169152872dB,172.733718141578°)
1.44543977074592e+001	(87414.58539795618dB,172.750196662391°)
1.44877185354475e+001	(87411.36837171826dB,172.766638425151°)
1.45211161758773e+001	(87408.16577039988dB,172.783043506472°)
1.45545908058195e+001	(87404.977528271dB,172.799411982862°)
1.45881426027534e+001	(87401.80357973227dB,172.81574393069°)
1.46217717445671e+001	(87398.6438595817dB,172.832039426215°)
1.46554784095590e+001	(87395.4983028623dB,172.848298545573°)
1.46892627764385e+001	(87392.36684501501dB,172.864521364784°)
1.47231250243271e+001	(87389.24942155747dB,172.880707959731°)
1.47570653327588e+001	(87386.14596853075dB,172.896858406195°)
1.47910838816819e+001	(87383.05642207805dB,172.91297277982°)
1.48251808514594e+001	(87379.98071871938dB,172.929051156137°)
1.48593564228699e+001	(87376.91879524382dB,172.945093610553°)
1.48936107771090e+001	(87373.8705886983dB,172.961100218352°)
1.49279440957898e+001	(87370.83603649773dB,172.977071054703°)
1.49623565609442e+001	(87367.81507621538dB,172.993006194644°)
1.49968483550236e+001	(87364.807645749dB,173.008905713095°)
1.50314196609001e+001	(87361.81368337739dB,173.024769684862°)
1.50660706618673e+001	(87358.83312744413dB,173.040598184612°)
1.51008015416413e+001	(87355.86591671505dB,173.056391286903°)
1.51356124843619e+001	(87352.9119902766dB,173.072149066174°)
1.51705036745932e+001	(87349.97128734105dB,173.08787159673°)
1.52054752973248e+001	(87347.04374746374dB,173.10355895276°)
1.52405275379728e+001	(87344.12931052329dB,173.119211208336°)
1.52756605823806e+001	(87341.22791657585dB,173.134828437399°)
1.53108746168202e+001	(87338.33950600115dB,173.150410713774°)
1.53461698279928e+001	(87335.46401946606dB,173.165958111165°)
1.53815464030302e+001	(87332.60139782215dB,173.181470703147°)
1.54170045294954e+001	(87329.75158222858dB,173.196948563176°)
1.54525443953840e+001	(87326.9145141288dB,173.212391764589°)
1.54881661891247e+001	(87324.09013527595dB,173.227800380603°)
1.55238700995807e+001	(87321.27838753519dB,173.243174484301°)
1.55596563160506e+001	(87318.47921314575dB,173.258514148654°)
1.55955250282694e+001	(87315.6925546046dB,173.273819446509°)
1.56314764264094e+001	(87312.91835460054dB,173.289090450589°)
1.56675107010813e+001	(87310.1565561402dB,173.304327233494°)
1.57036280433354e+001	(87307.40710250787dB,173.319529867709°)
1.57398286446620e+001	(87304.66993720637dB,173.33469842559°)
1.57761126969933e+001	(87301.94500392523dB,173.349832979368°)
1.58124803927037e+001	(87299.23224673043dB,173.364933601159°)
1.58489319246110e+001	(87296.53160980772dB,173.38000036295°)
1.58854674859776e+001	(87293.84303776435dB,173.395033336615°)
1.59220872705115e+001	(87291.1664752479dB,173.410032593893°)
1.59587914723672e+001	(87288.50186737896dB,173.424998206416°)
1.59955802861465e+001	(87285.84915936645dB,173.439930245681°)
1.60324539069002e+001	(87283.20829662682dB,173.454828783063°)
1.60694125301286e+001	(87280.57922506603dB,173.46969388983°)
1.61064563517825e+001	(87277.96189057735dB,173.484525637111°)
1.61435855682647e+001	(87275.35623943065dB,173.499324095921°)
1.61808003764305e+001	(87272.76221806889dB,173.514089337147°)
1.62181009735891e+001	(87270.17977319633dB,173.528821431559°)
1.62554875575047e+001	(87267.60885183465dB,173.543520449807°)
1.62929603263970e+001	(87265.04940114562dB,173.558186462412°)
1.63305194789432e+001	(87262.50136857717dB,173.572819539779°)
1.63681652142779e+001	(87259.96470178924dB,173.587419752186°)
1.64058977319952e+001	(87257.4393486879dB,173.601987169793°)
1.64437172321491e+001	(87254.92525743206dB,173.616521862635°)
1.64816239152549e+001	(87252.42237644302dB,173.631023900631°)
1.65196179822900e+001	(87249.93065426429dB,173.645493353567°)
1.65576996346951e+001	(87247.45003969902dB,173.659930291113°)
1.65958690743754e+001	(87244.98048195934dB,173.674334782825°)
1.66341265037015e+001	(87242.52193022062dB,173.688706898122°)
1.66724721255104e+001	(87240.07433406667dB,173.703046706312°)
1.67109061431069e+001	(87237.63764329895dB,173.717354276581°)
1.67494287602642e+001	(87235.21180783957dB,173.731629677985°)
1.67880401812254e+001	(87232.79677795836dB,173.745872979468°)
1.68267406107045e+001	(87230.39250407716dB,173.760084249847°)
1.68655302538872e+001	(87227.99893681661dB,173.774263557814°)
1.69044093164324e+001	(87225.61602712664dB,173.78841097195°)
1.69433780044731e+001	(87223.24372607535dB,173.802526560703°)
1.69824365246172e+001	(87220.88198509834dB,173.816610392414°)
1.70215850839493e+001	(87218.5307555865dB,173.83066253528°)
1.70608238900310e+001	(87216.18998942146dB,173.844683057398°)
1.71001531509027e+001	(87213.8596385481dB,173.858672026734°)
1.71395730750841e+001	(87211.53965520013dB,173.872629511133°)
1.71790838715757e+001	(87209.22999182968dB,173.886555578325°)
1.72186857498599e+001	(87206.93060100309dB,173.900450295905°)
1.72583789199018e+001	(87204.64143560344dB,173.914313731361°)
1.72981635921508e+001	(87202.36244873806dB,173.928145952054°)
1.73380399775412e+001	(87200.09359367962dB,173.941947025225°)
1.73780082874935e+001	(87197.83482381198dB,173.955717017986°)
1.74180687339159e+001	(87195.58609305338dB,173.969455997349°)
1.74582215292048e+001	(87193.3473551552dB,173.983164030181°)
1.74984668862464e+001	(87191.11856429461dB,173.996841183242°)
1.75388050184174e+001	(87188.89967476891dB,174.010487523166°)
1.75792361395867e+001	(87186.69064117619dB,174.024103116471°)
1.76197604641161e+001	(87184.49141826162dB,174.037688029552°)
1.76603782068614e+001	(87182.30196090355dB,174.051242328679°)
1.77010895831740e+001	(87180.12222436519dB,174.064766080011°)
1.77418948089014e+001	(87177.95216395997dB,174.078259349578°)
1.77827941003890e+001	(87175.79173523861dB,174.091722203293°)
1.78237876744807e+001	(87173.64089401392dB,174.10515470695°)
1.78648757485203e+001	(87171.49959620138dB,174.118556926218°)
1.79060585403527e+001	(87169.36779797863dB,174.131928926651°)
1.79473362683250e+001	(87167.24545574044dB,174.14527077368°)
1.79887091512877e+001	(87165.13252610389dB,174.158582532622°)
1.80301774085955e+001	(87163.02896573023dB,174.171864268662°)
1.80717412601090e+001	(87160.9347316887dB,174.185116046878°)
1.81134009261958e+001	(87158.84978101717dB,174.198337932216°)
1.81551566277311e+001	(87156.77407114382dB,174.211529989512°)
1.81970085860996e+001	(87154.70755968415dB,174.224692283484°)
1.82389570231961e+001	(87152.65020425014dB,174.237824878716°)
1.82810021614272e+001	(87150.6019628799dB,174.25092783969°)
1.83231442237119e+001	(87148.56279363943dB,174.264001230755°)
1.83653834334832e+001	(87146.53265493741dB,174.277045116153°)
1.84077200146893e+001	(87144.51150515726dB,174.290059559992°)
1.84501541917945e+001	(87142.49930307375dB,174.303044626273°)
1.84926861897805e+001	(87140.49600759755dB,174.316000378875°)
1.85353162341479e+001	(87138.50157776591dB,174.328926881555°)
1.85780445509167e+001	(87136.51597285735dB,174.341824197954°)
1.86208713666284e+001	(87134.53915233439dB,174.354692391593°)
1.86637969083464e+001	(87132.57107579327dB,174.367531525872°)
1.87068214036578e+001	(87130.61170313013dB,174.380341664081°)
1.87499450806739e+001	(87128.66099422764dB,174.393122869375°)
1.87931681680324e+001	(87126.71890938342dB,174.40587520481°)
1.88364908948977e+001	(87124.78540893938dB,174.418598733311°)
1.88799134909627e+001	(87122.86045341223dB,174.431293517687°)
1.89234361864495e+001	(87120.94400363021dB,174.443959620635°)
1.89670592121112e+001	(87119.03602036042dB,174.45659710472°)
1.90107827992327e+001	(87117.13646482733dB,174.469206032407°)
1.90546071796322e+001	(87115.24529830375dB,174.481786466033°)
1.90985325856621e+001	(87113.36248211405dB,174.494338467811°)
1.91425592502106e+001	(87111.48797800444dB,174.50686209985°)
1.91866874067026e+001	(87109.62174770096dB,174.519357424132°)
1.92309172891013e+001	(87107.76375323968dB,174.531824502526°)
1.92752491319091e+001	(87105.91395667859dB,174.544263396777°)
1.93196831701690e+001	(87104.07232047166dB,174.556674168526°)
1.93642196394658e+001	(87102.23880702828dB,174.569056879282°)
1.94088587759275e+001	(87100.4133790731dB,174.581411590447°)
1.94536008162263e+001	(87098.5959993588dB,174.593738363296°)
1.94984459975802e+001	(87096.78663105659dB,174.606037259004°)
1.95433945577537e+001	(87094.98523718173dB,174.618308338608°)
1.95884467350596e+001	(87093.19178123449dB,174.630551663047°)
1.96336027683602e+001	(87091.40622661437dB,174.642767293128°)
1.96788628970682e+001	(87089.62853712706dB,174.654955289556°)
1.97242273611483e+001	(87087.85867658809dB,174.66711571291°)
1.97696964011183e+001	(87086.09660897157dB,174.679248623652°)
1.98152702580507e+001	(87084.3422984667dB,174.69135408213°)
1.98609491735734e+001	(87082.59570949062dB,174.70343214858°)
1.99067333898716e+001	(87080.85680659585dB,174.715482883123°)
1.99526231496885e+001	(87079.12555435226dB,174.727506345751°)
1.99986186963271e+001	(87077.40191765394dB,174.739502596354°)
2.00447202736513e+001	(87075.68586156878dB,174.751471694703°)
2.00909281260870e+001	(87073.9773511382dB,174.763413700445°)
2.01372424986236e+001	(87072.27635188476dB,174.775328673132°)
2.01836636368153e+001	(87070.58282915535dB,174.787216672176°)
2.02301917867824e+001	(87068.8967486192dB,174.799077756887°)
2.02768271952125e+001	(87067.2180760997dB,174.810911986459°)
2.03235701093619e+001	(87065.54677761189dB,174.822719419974°)
2.03704207770569e+001	(87063.88281921227dB,174.83450011639°)
2.04173794466950e+001	(87062.2261672278dB,174.846254134557°)
2.04644463672464e+001	(87060.57678804586dB,174.857981533208°)
2.05116217882553e+001	(87058.93464834506dB,174.869682370967°)
2.05589059598411e+001	(87057.29971479937dB,174.881356706333°)
2.06062991326997e+001	(87055.67195435817dB,174.893004597701°)
2.06538015581050e+001	(87054.05133402815dB,174.904626103344°)
2.07014134879101e+001	(87052.43782102452dB,174.916221281424°)
2.07491351745488e+001	(87050.83138282642dB,174.927790189998°)
2.07969668710366e+001	(87049.23198676578dB,174.93933288699°)
2.08449088309726e+001	(87047.63960063644dB,174.950849430228°)
2.08929613085401e+001	(87046.0541922135dB,174.962339877417°)
2.09411245585086e+001	(87044.47572939003dB,174.973804286148°)
2.09893988362349e+001	(87042.90418041087dB,174.985242713909°)
