Freq.	I(R6)/I(R3)
1.00000000000000e+000	(6.87001846052873e+000dB,8.82809230720645e+001°)
1.00230523807790e+000	(6.89000042329938e+000dB,8.82769625759439e+001°)
1.00461579027840e+000	(6.90998230287642e+000dB,8.82729929664601e+001°)
1.00693166885180e+000	(6.92996409890132e+000dB,8.82690142227190e+001°)
1.00925288607668e+000	(6.94994581096466e+000dB,8.82650263237791e+001°)
1.01157945425990e+000	(6.96992743869755e+000dB,8.82610292486518e+001°)
1.01391138573668e+000	(6.98990898171809e+000dB,8.82570229763003e+001°)
1.01624869287070e+000	(7.00989043960926e+000dB,8.82530074856405e+001°)
1.01859138805412e+000	(7.02987181200621e+000dB,8.82489827555402e+001°)
1.02093948370768e+000	(7.04985309848546e+000dB,8.82449487648200e+001°)
1.02329299228075e+000	(7.06983429868708e+000dB,8.82409054922515e+001°)
1.02565192625141e+000	(7.08981541217497e+000dB,8.82368529165590e+001°)
1.02801629812647e+000	(7.10979643858851e+000dB,8.82327910164181e+001°)
1.03038612044162e+000	(7.12977737748086e+000dB,8.82287197704567e+001°)
1.03276140576140e+000	(7.14975822850657e+000dB,8.82246391572535e+001°)
1.03514216667934e+000	(7.16973899122130e+000dB,8.82205491553391e+001°)
1.03752841581801e+000	(7.18971966521775e+000dB,8.82164497431953e+001°)
1.03992016582906e+000	(7.20970025009259e+000dB,8.82123408992555e+001°)
1.04231742939330e+000	(7.22968074544213e+000dB,8.82082226019039e+001°)
1.04472021922080e+000	(7.24966115086078e+000dB,8.82040948294759e+001°)
1.04712854805090e+000	(7.26964146591954e+000dB,8.81999575602578e+001°)
1.04954242865232e+000	(7.28962169019873e+000dB,8.81958107724866e+001°)
1.05196187382322e+000	(7.30960182329301e+000dB,8.81916544443505e+001°)
1.05438689639126e+000	(7.32958186476839e+000dB,8.81874885539879e+001°)
1.05681750921366e+000	(7.34956181422259e+000dB,8.81833130794874e+001°)
1.05925372517729e+000	(7.36954167122432e+000dB,8.81791279988890e+001°)
1.06169555719872e+000	(7.38952143535371e+000dB,8.81749332901819e+001°)
1.06414301822431e+000	(7.40950110615142e+000dB,8.81707289313062e+001°)
1.06659612123026e+000	(7.42948068321043e+000dB,8.81665149001521e+001°)
1.06905487922266e+000	(7.44946016610357e+000dB,8.81622911745592e+001°)
1.07151930523761e+000	(7.46943955439783e+000dB,8.81580577323176e+001°)
1.07398941234124e+000	(7.48941884764675e+000dB,8.81538145511665e+001°)
1.07646521362983e+000	(7.50939804541558e+000dB,8.81495616087953e+001°)
1.07894672222983e+000	(7.52937714727103e+000dB,8.81452988828428e+001°)
1.08143395129794e+000	(7.54935615276936e+000dB,8.81410263508972e+001°)
1.08392691402120e+000	(7.56933506145187e+000dB,8.81367439904958e+001°)
1.08642562361706e+000	(7.58931387288043e+000dB,8.81324517791255e+001°)
1.08893009333343e+000	(7.60929258662774e+000dB,8.81281496942217e+001°)
1.09144033644876e+000	(7.62927120220807e+000dB,8.81238377131695e+001°)
1.09395636627209e+000	(7.64924971920763e+000dB,8.81195158133023e+001°)
1.09647819614318e+000	(7.66922813714969e+000dB,8.81151839719029e+001°)
1.09900583943252e+000	(7.68920645557804e+000dB,8.81108421662020e+001°)
1.10153930954141e+000	(7.70918467402596e+000dB,8.81064903733791e+001°)
1.10407861990207e+000	(7.72916279205389e+000dB,8.81021285705627e+001°)
1.10662378397766e+000	(7.74914080920781e+000dB,8.80977567348285e+001°)
1.10917481526240e+000	(7.76911872498402e+000dB,8.80933748432015e+001°)
1.11173172728159e+000	(7.78909653893781e+000dB,8.80889828726541e+001°)
1.11429453359173e+000	(7.80907425061530e+000dB,8.80845808001069e+001°)
1.11686324778056e+000	(7.82905185950660e+000dB,8.80801686024287e+001°)
1.11943788346715e+000	(7.84902936518020e+000dB,8.80757462564356e+001°)
1.12201845430196e+000	(7.86900676713662e+000dB,8.80713137388912e+001°)
1.12460497396692e+000	(7.88898406490206e+000dB,8.80668710265070e+001°)
1.12719745617551e+000	(7.90896125799852e+000dB,8.80624180959421e+001°)
1.12979591467280e+000	(7.92893834595478e+000dB,8.80579549238024e+001°)
1.13240036323556e+000	(7.94891532825342e+000dB,8.80534814866411e+001°)
1.13501081567231e+000	(7.96889220445117e+000dB,8.80489977609590e+001°)
1.13762728582343e+000	(7.98886897402752e+000dB,8.80445037232029e+001°)
1.14024978756117e+000	(8.00884563649879e+000dB,8.80399993497672e+001°)
1.14287833478977e+000	(8.02882219137257e+000dB,8.80354846169932e+001°)
1.14551294144553e+000	(8.04879863816957e+000dB,8.80309595011679e+001°)
1.14815362149688e+000	(8.06877497636088e+000dB,8.80264239785256e+001°)
1.15080038894443e+000	(8.08875120547630e+000dB,8.80218780252464e+001°)
1.15345325782109e+000	(8.10872732501209e+000dB,8.80173216174578e+001°)
1.15611224219210e+000	(8.12870333444488e+000dB,8.80127547312317e+001°)
1.15877735615512e+000	(8.14867923326487e+000dB,8.80081773425874e+001°)
1.16144861384034e+000	(8.16865502099131e+000dB,8.80035894274898e+001°)
1.16412602941049e+000	(8.18863069706689e+000dB,8.79989909618492e+001°)
1.16680961706096e+000	(8.20860626103554e+000dB,8.79943819215223e+001°)
1.16949939101987e+000	(8.22858171234200e+000dB,8.79897622823107e+001°)
1.17219536554813e+000	(8.24855705046646e+000dB,8.79851320199617e+001°)
1.17489755493953e+000	(8.26853227491091e+000dB,8.79804911101683e+001°)
1.17760597352080e+000	(8.28850738512672e+000dB,8.79758395285678e+001°)
1.18032063565173e+000	(8.30848238060712e+000dB,8.79711772507437e+001°)
1.18304155572516e+000	(8.32845726081539e+000dB,8.79665042522238e+001°)
1.18576874816716e+000	(8.34843202522380e+000dB,8.79618205084808e+001°)
1.18850222743702e+000	(8.36840667329840e+000dB,8.79571259949326e+001°)
1.19124200802737e+000	(8.38838120448708e+000dB,8.79524206869410e+001°)
1.19398810446427e+000	(8.40835561828556e+000dB,8.79477045598132e+001°)
1.19674053130724e+000	(8.42832991414671e+000dB,8.79429775887998e+001°)
1.19949930314938e+000	(8.44830409148826e+000dB,8.79382397490967e+001°)
1.20226443461741e+000	(8.46827814980977e+000dB,8.79334910158433e+001°)
1.20503594037179e+000	(8.48825208854198e+000dB,8.79287313641230e+001°)
1.20781383510678e+000	(8.50822590713396e+000dB,8.79239607689634e+001°)
1.21059813355048e+000	(8.52819960504012e+000dB,8.79191792053358e+001°)
1.21338885046497e+000	(8.54817318169282e+000dB,8.79143866481553e+001°)
1.21618600064636e+000	(8.56814663656430e+000dB,8.79095830722802e+001°)
1.21898959892486e+000	(8.58811996905186e+000dB,8.79047684525128e+001°)
1.22179966016487e+000	(8.60809317862864e+000dB,8.78999427635978e+001°)
1.22461619926504e+000	(8.62806626470393e+000dB,8.78951059802243e+001°)
1.22743923115840e+000	(8.64803922671276e+000dB,8.78902580770233e+001°)
1.23026877081238e+000	(8.66801206410250e+000dB,8.78853990285697e+001°)
1.23310483322890e+000	(8.68798477627483e+000dB,8.78805288093808e+001°)
1.23594743344451e+000	(8.70795736267404e+000dB,8.78756473939161e+001°)
1.23879658653036e+000	(8.72792982270568e+000dB,8.78707547565788e+001°)
1.24165230759241e+000	(8.74790215579321e+000dB,8.78658508717137e+001°)
1.24451461177138e+000	(8.76787436135427e+000dB,8.78609357136082e+001°)
1.24738351424294e+000	(8.78784643881255e+000dB,8.78560092564919e+001°)
1.25025903021771e+000	(8.80781838754778e+000dB,8.78510714745368e+001°)
1.25314117494141e+000	(8.82779020700890e+000dB,8.78461223418561e+001°)
1.25602996369487e+000	(8.84776189656023e+000dB,8.78411618325057e+001°)
1.25892541179416e+000	(8.86773345563239e+000dB,8.78361899204829e+001°)
1.26182753459066e+000	(8.88770488360609e+000dB,8.78312065797261e+001°)
1.26473634747115e+000	(8.90767617989235e+000dB,8.78262117841160e+001°)
1.26765186585784e+000	(8.92764734388024e+000dB,8.78212055074745e+001°)
1.27057410520854e+000	(8.94761837495004e+000dB,8.78161877235638e+001°)
1.27350308101666e+000	(8.96758927251393e+000dB,8.78111584060886e+001°)
1.27643880881134e+000	(8.98756003593665e+000dB,8.78061175286935e+001°)
1.27938130415752e+000	(9.00753066460900e+000dB,8.78010650649644e+001°)
1.28233058265602e+000	(9.02750115790995e+000dB,8.77960009884281e+001°)
1.28528665994361e+000	(9.04747151521968e+000dB,8.77909252725514e+001°)
1.28824955169313e+000	(9.06744173591628e+000dB,8.77858378907424e+001°)
1.29121927361353e+000	(9.08741181932322e+000dB,8.77807388163487e+001°)
1.29419584144998e+000	(9.10738176488622e+000dB,8.77756280226586e+001°)
1.29717927098395e+000	(9.12735157192924e+000dB,8.77705054829007e+001°)
1.30016957803328e+000	(9.14732123980859e+000dB,8.77653711702427e+001°)
1.30316677845229e+000	(9.16729076790428e+000dB,8.77602250577933e+001°)
1.30617088813183e+000	(9.18726015556652e+000dB,8.77550671186001e+001°)
1.30918192299940e+000	(9.20722940212757e+000dB,8.77498973256508e+001°)
1.31219989901920e+000	(9.22719850696794e+000dB,8.77447156518718e+001°)
1.31522483219223e+000	(9.24716746944145e+000dB,8.77395220701298e+001°)
1.31825673855640e+000	(9.26713628885264e+000dB,8.77343165532301e+001°)
1.32129563418657e+000	(9.28710496456809e+000dB,8.77290990739171e+001°)
1.32434153519466e+000	(9.30707349593279e+000dB,8.77238696048745e+001°)
1.32739445772973e+000	(9.32704188226669e+000dB,8.77186281187244e+001°)
1.33045441797808e+000	(9.34701012291891e+000dB,8.77133745880279e+001°)
1.33352143216332e+000	(9.36697821719345e+000dB,8.77081089852846e+001°)
1.33659551654643e+000	(9.38694616444663e+000dB,8.77028312829323e+001°)
1.33967668742593e+000	(9.40691396399365e+000dB,8.76975414533474e+001°)
1.34276496113786e+000	(9.42688161513528e+000dB,8.76922394688445e+001°)
1.34586035405594e+000	(9.44684911722693e+000dB,8.76869253016761e+001°)
1.34896288259164e+000	(9.46681646954539e+000dB,8.76815989240326e+001°)
1.35207256319427e+000	(9.48678367141777e+000dB,8.76762603080421e+001°)
1.35518941235103e+000	(9.50675072214104e+000dB,8.76709094257706e+001°)
1.35831344658715e+000	(9.52671762104683e+000dB,8.76655462492215e+001°)
1.36144468246594e+000	(9.54668436741240e+000dB,8.76601707503357e+001°)
1.36458313658892e+000	(9.56665096053924e+000dB,8.76547829009912e+001°)
1.36772882559584e+000	(9.58661739971969e+000dB,8.76493826730033e+001°)
1.37088176616484e+000	(9.60658368425902e+000dB,8.76439700381240e+001°)
1.37404197501251e+000	(9.62654981343503e+000dB,8.76385449680424e+001°)
1.37720946889394e+000	(9.64651578654638e+000dB,8.76331074343846e+001°)
1.38038426460288e+000	(9.66648160285599e+000dB,8.76276574087128e+001°)
1.38356637897177e+000	(9.68644726165363e+000dB,8.76221948625260e+001°)
1.38675582887188e+000	(9.70641276220577e+000dB,8.76167197672593e+001°)
1.38995263121334e+000	(9.72637810381696e+000dB,8.76112320942842e+001°)
1.39315680294529e+000	(9.74634328570859e+000dB,8.76057318149084e+001°)
1.39636836105593e+000	(9.76630830718275e+000dB,8.76002189003751e+001°)
1.39958732257261e+000	(9.78627316746794e+000dB,8.75946933218639e+001°)
1.40281370456195e+000	(9.80623786584274e+000dB,8.75891550504895e+001°)
1.40604752412990e+000	(9.82620240157372e+000dB,8.75836040573024e+001°)
1.40928879842186e+000	(9.84616677390259e+000dB,8.75780403132887e+001°)
1.41253754462274e+000	(9.86613098206921e+000dB,8.75724637893695e+001°)
1.41579377995707e+000	(9.88609502532341e+000dB,8.75668744564010e+001°)
1.41905752168908e+000	(9.90605890291386e+000dB,8.75612722851747e+001°)
1.42232878712281e+000	(9.92602261406507e+000dB,8.75556572464167e+001°)
1.42560759360218e+000	(9.94598615802015e+000dB,8.75500293107880e+001°)
1.42889395851109e+000	(9.96594953402632e+000dB,8.75443884488843e+001°)
1.43218789927353e+000	(9.98591274128250e+000dB,8.75387346312351e+001°)
1.43548943335364e+000	(1.00058757790129e+001dB,8.75330678283052e+001°)
1.43879857825583e+000	(1.00258386464641e+001dB,8.75273880104929e+001°)
1.44211535152486e+000	(1.00458013428532e+001dB,8.75216951481309e+001°)
1.44543977074592e+000	(1.00657638673524e+001dB,8.75159892114857e+001°)
1.44877185354475e+000	(1.00857262192176e+001dB,8.75102701707576e+001°)
1.45211161758773e+000	(1.01056883976218e+001dB,8.75045379960804e+001°)
1.45545908058195e+000	(1.01256504017957e+001dB,8.74987926575217e+001°)
1.45881426027534e+000	(1.01456122308993e+001dB,8.74930341250823e+001°)
1.46217717445671e+000	(1.01655738841837e+001dB,8.74872623686962e+001°)
1.46554784095590e+000	(1.01855353607939e+001dB,8.74814773582308e+001°)
1.46892627764385e+000	(1.02054966599397e+001dB,8.74756790634859e+001°)
1.47231250243271e+000	(1.02254577807749e+001dB,8.74698674541946e+001°)
1.47570653327588e+000	(1.02454187225143e+001dB,8.74640425000227e+001°)
1.47910838816819e+000	(1.02653794843233e+001dB,8.74582041705680e+001°)
1.48251808514594e+000	(1.02853400653834e+001dB,8.74523524353615e+001°)
1.48593564228699e+000	(1.03053004648463e+001dB,8.74464872638659e+001°)
1.48936107771090e+000	(1.03252606818877e+001dB,8.74406086254764e+001°)
1.49279440957898e+000	(1.03452207156618e+001dB,8.74347164895196e+001°)
1.49623565609442e+000	(1.03651805653184e+001dB,8.74288108252545e+001°)
1.49968483550236e+000	(1.03851402300452e+001dB,8.74228916018720e+001°)
1.50314196609001e+000	(1.04050997089770e+001dB,8.74169587884938e+001°)
1.50660706618673e+000	(1.04250590012236e+001dB,8.74110123541739e+001°)
1.51008015416413e+000	(1.04450181059811e+001dB,8.74050522678966e+001°)
1.51356124843619e+000	(1.04649770223414e+001dB,8.73990784985785e+001°)
1.51705036745932e+000	(1.04849357494633e+001dB,8.73930910150663e+001°)
1.52054752973248e+000	(1.05048942864791e+001dB,8.73870897861382e+001°)
1.52405275379728e+000	(1.05248526325280e+001dB,8.73810747805026e+001°)
1.52756605823806e+000	(1.05448107866789e+001dB,8.73750459667989e+001°)
1.53108746168202e+000	(1.05647687481129e+001dB,8.73690033135965e+001°)
1.53461698279928e+000	(1.05847265158957e+001dB,8.73629467893958e+001°)
1.53815464030302e+000	(1.06046840891693e+001dB,8.73568763626267e+001°)
1.54170045294954e+000	(1.06246414670283e+001dB,8.73507920016496e+001°)
1.54525443953840e+000	(1.06445986485604e+001dB,8.73446936747544e+001°)
1.54881661891247e+000	(1.06645556328675e+001dB,8.73385813501611e+001°)
1.55238700995807e+000	(1.06845124190801e+001dB,8.73324549960189e+001°)
1.55596563160506e+000	(1.07044690062474e+001dB,8.73263145804069e+001°)
1.55955250282694e+000	(1.07244253934713e+001dB,8.73201600713331e+001°)
1.56314764264094e+000	(1.07443815798253e+001dB,8.73139914367350e+001°)
1.56675107010813e+000	(1.07643375643863e+001dB,8.73078086444789e+001°)
1.57036280433354e+000	(1.07842933462403e+001dB,8.73016116623601e+001°)
1.57398286446620e+000	(1.08042489244410e+001dB,8.72954004581027e+001°)
1.57761126969933e+000	(1.08242042980541e+001dB,8.72891749993592e+001°)
1.58124803927037e+000	(1.08441594661315e+001dB,8.72829352537107e+001°)
1.58489319246110e+000	(1.08641144277663e+001dB,8.72766811886666e+001°)
1.58854674859776e+000	(1.08840691819661e+001dB,8.72704127716644e+001°)
1.59220872705115e+000	(1.09040237278072e+001dB,8.72641299700696e+001°)
1.59587914723672e+000	(1.09239780643047e+001dB,8.72578327511759e+001°)
1.59955802861465e+000	(1.09439321905255e+001dB,8.72515210822041e+001°)
1.60324539069002e+000	(1.09638861054925e+001dB,8.72451949303032e+001°)
1.60694125301286e+000	(1.09838398082134e+001dB,8.72388542625492e+001°)
1.61064563517825e+000	(1.10037932977601e+001dB,8.72324990459457e+001°)
1.61435855682647e+000	(1.10237465731010e+001dB,8.72261292474234e+001°)
1.61808003764305e+000	(1.10436996332929e+001dB,8.72197448338397e+001°)
1.62181009735891e+000	(1.10636524773269e+001dB,8.72133457719792e+001°)
1.62554875575047e+000	(1.10836051042190e+001dB,8.72069320285534e+001°)
1.62929603263970e+000	(1.11035575129605e+001dB,8.72005035701996e+001°)
1.63305194789432e+000	(1.11235097025394e+001dB,8.71940603634821e+001°)
1.63681652142779e+000	(1.11434616719969e+001dB,8.71876023748915e+001°)
1.64058977319952e+000	(1.11634134202812e+001dB,8.71811295708442e+001°)
1.64437172321491e+000	(1.11833649463583e+001dB,8.71746419176830e+001°)
1.64816239152549e+000	(1.12033162492718e+001dB,8.71681393816760e+001°)
1.65196179822900e+000	(1.12232673279449e+001dB,8.71616219290174e+001°)
1.65576996346951e+000	(1.12432181813697e+001dB,8.71550895258268e+001°)
1.65958690743754e+000	(1.12631688085050e+001dB,8.71485421381490e+001°)
1.66341265037015e+000	(1.12831192082868e+001dB,8.71419797319545e+001°)
1.66724721255104e+000	(1.13030693797240e+001dB,8.71354022731385e+001°)
1.67109061431069e+000	(1.13230193217111e+001dB,8.71288097275212e+001°)
1.67494287602642e+000	(1.13429690332430e+001dB,8.71222020608476e+001°)
1.67880401812254e+000	(1.13629185132246e+001dB,8.71155792387875e+001°)
1.68267406107045e+000	(1.13828677606218e+001dB,8.71089412269350e+001°)
1.68655302538872e+000	(1.14028167743468e+001dB,8.71022879908088e+001°)
1.69044093164324e+000	(1.14227655533390e+001dB,8.70956194958514e+001°)
1.69433780044731e+000	(1.14427140964942e+001dB,8.70889357074295e+001°)
1.69824365246172e+000	(1.14626624027751e+001dB,8.70822365908342e+001°)
1.70215850839493e+000	(1.14826104710611e+001dB,8.70755221112795e+001°)
1.70608238900310e+000	(1.15025583002544e+001dB,8.70687922339036e+001°)
1.71001531509027e+000	(1.15225058892825e+001dB,8.70620469237679e+001°)
1.71395730750840e+000	(1.15424532370115e+001dB,8.70552861458572e+001°)
1.71790838715757e+000	(1.15624003423865e+001dB,8.70485098650795e+001°)
1.72186857498599e+000	(1.15823472042203e+001dB,8.70417180462655e+001°)
1.72583789199018e+000	(1.16022938214477e+001dB,8.70349106541690e+001°)
1.72981635921508e+000	(1.16222401929422e+001dB,8.70280876534665e+001°)
1.73380399775412e+000	(1.16421863175572e+001dB,8.70212490087570e+001°)
1.73780082874935e+000	(1.16621321941793e+001dB,8.70143946845618e+001°)
1.74180687339159e+000	(1.16820778216385e+001dB,8.70075246453247e+001°)
1.74582215292048e+000	(1.17020231988261e+001dB,8.70006388554112e+001°)
1.74984668862464e+000	(1.17219683245738e+001dB,8.69937372791091e+001°)
1.75388050184174e+000	(1.17419131977309e+001dB,8.69868198806277e+001°)
1.75792361395867e+000	(1.17618578171370e+001dB,8.69798866240981e+001°)
1.76197604641161e+000	(1.17818021816328e+001dB,8.69729374735730e+001°)
1.76603782068614e+000	(1.18017462900460e+001dB,8.69659723930261e+001°)
1.77010895831740e+000	(1.18216901411862e+001dB,8.69589913463525e+001°)
1.77418948089014e+000	(1.18416337339026e+001dB,8.69519942973683e+001°)
1.77827941003890e+000	(1.18615770669771e+001dB,8.69449812098103e+001°)
1.78237876744807e+000	(1.18815201392448e+001dB,8.69379520473365e+001°)
1.78648757485203e+000	(1.19014629494914e+001dB,8.69309067735248e+001°)
1.79060585403527e+000	(1.19214054965149e+001dB,8.69238453518739e+001°)
1.79473362683250e+000	(1.19413477791337e+001dB,8.69167677458029e+001°)
1.79887091512876e+000	(1.19612897961046e+001dB,8.69096739186506e+001°)
1.80301774085955e+000	(1.19812315462148e+001dB,8.69025638336759e+001°)
1.80717412601090e+000	(1.20011730282345e+001dB,8.68954374540578e+001°)
1.81134009261958e+000	(1.20211142409477e+001dB,8.68882947428944e+001°)
1.81551566277311e+000	(1.20410551831202e+001dB,8.68811356632038e+001°)
1.81970085860996e+000	(1.20609958534863e+001dB,8.68739601779231e+001°)
1.82389570231961e+000	(1.20809362508421e+001dB,8.68667682499088e+001°)
1.82810021614272e+000	(1.21008763738793e+001dB,8.68595598419360e+001°)
1.83231442237119e+000	(1.21208162213793e+001dB,8.68523349166993e+001°)
1.83653834334832e+000	(1.21407557920666e+001dB,8.68450934368116e+001°)
1.84077200146893e+000	(1.21606950846705e+001dB,8.68378353648044e+001°)
1.84501541917945e+000	(1.21806340979343e+001dB,8.68305606631279e+001°)
1.84926861897805e+000	(1.22005728305274e+001dB,8.68232692941499e+001°)
1.85353162341479e+000	(1.22205112812238e+001dB,8.68159612201570e+001°)
1.85780445509167e+000	(1.22404494486729e+001dB,8.68086364033533e+001°)
1.86208713666284e+000	(1.22603873316159e+001dB,8.68012948058609e+001°)
1.86637969083464e+000	(1.22803249287271e+001dB,8.67939363897195e+001°)
1.87068214036577e+000	(1.23002622387139e+001dB,8.67865611168862e+001°)
1.87499450806739e+000	(1.23201992602442e+001dB,8.67791689492352e+001°)
1.87931681680324e+000	(1.23401359919870e+001dB,8.67717598485582e+001°)
1.88364908948977e+000	(1.23600724326371e+001dB,8.67643337765640e+001°)
1.88799134909627e+000	(1.23800085808523e+001dB,8.67568906948779e+001°)
1.89234361864495e+000	(1.23999444352748e+001dB,8.67494305650420e+001°)
1.89670592121112e+000	(1.24198799945627e+001dB,8.67419533485149e+001°)
1.90107827992327e+000	(1.24398152573779e+001dB,8.67344590066717e+001°)
1.90546071796322e+000	(1.24597502223511e+001dB,8.67269475008035e+001°)
