Freq.	V(n007)/I(R4)
1.00000000000000e+000	(60.8240026537504dB,-1.5376590682997°)
1.00230523807790e+000	(60.823984889554dB,-1.54120133348096°)
1.00461579027840e+000	(60.8239670434605dB,-1.54475174785419°)
1.00693166885180e+000	(60.8239491150926dB,-1.54831033009122°)
1.00925288607668e+000	(60.8239311040713dB,-1.5518770989061°)
1.01157945425990e+000	(60.8239130100162dB,-1.55545207305527°)
1.01391138573668e+000	(60.8238948325447dB,-1.55903527133759°)
1.01624869287070e+000	(60.8238765712726dB,-1.56262671259446°)
1.01859138805412e+000	(60.8238582258141dB,-1.56622641570992°)
1.02093948370768e+000	(60.8238397957815dB,-1.56983439961072°)
1.02329299228075e+000	(60.8238212807851dB,-1.57345068326643°)
1.02565192625141e+000	(60.8238026804338dB,-1.57707528568952°)
1.02801629812647e+000	(60.8237839943346dB,-1.58070822593547°)
1.03038612044162e+000	(60.8237652220923dB,-1.58434952310285°)
1.03276140576140e+000	(60.8237463633105dB,-1.5879991963334°)
1.03514216667934e+000	(60.8237274175905dB,-1.59165726481218°)
1.03752841581801e+000	(60.823708384532dB,-1.59532374776759°)
1.03992016582906e+000	(60.8236892637329dB,-1.59899866447152°)
1.04231742939330e+000	(60.8236700547889dB,-1.60268203423941°)
1.04472021922080e+000	(60.8236507572944dB,-1.60637387643036°)
1.04712854805090e+000	(60.8236313708414dB,-1.61007421044724°)
1.04954242865232e+000	(60.8236118950204dB,-1.61378305573674°)
1.05196187382322e+000	(60.8235923294197dB,-1.61750043178952°)
1.05438689639126e+000	(60.8235726736261dB,-1.62122635814026°)
1.05681750921366e+000	(60.8235529272242dB,-1.62496085436777°)
1.05925372517729e+000	(60.8235330897967dB,-1.62870394009511°)
1.06169555719872e+000	(60.8235131609245dB,-1.63245563498965°)
1.06414301822431e+000	(60.8234931401866dB,-1.63621595876318°)
1.06659612123026e+000	(60.8234730271598dB,-1.639984931172°)
1.06905487922266e+000	(60.8234528214194dB,-1.64376257201704°)
1.07151930523761e+000	(60.8234325225384dB,-1.64754890114394°)
1.07398941234124e+000	(60.8234121300879dB,-1.65134393844312°)
1.07646521362983e+000	(60.8233916436371dB,-1.65514770384993°)
1.07894672222983e+000	(60.8233710627531dB,-1.65896021734471°)
1.08143395129794e+000	(60.8233503870012dB,-1.66278149895289°)
1.08392691402120e+000	(60.8233296159446dB,-1.66661156874509°)
1.08642562361706e+000	(60.8233087491445dB,-1.67045044683726°)
1.08893009333343e+000	(60.82328778616dB,-1.67429815339069°)
1.09144033644876e+000	(60.8232667265483dB,-1.67815470861218°)
1.09395636627209e+000	(60.8232455698645dB,-1.68202013275411°)
1.09647819614318e+000	(60.8232243156617dB,-1.68589444611456°)
1.09900583943252e+000	(60.8232029634909dB,-1.68977766903738°)
1.10153930954141e+000	(60.8231815129011dB,-1.69366982191228°)
1.10407861990207e+000	(60.8231599634391dB,-1.69757092517498°)
1.10662378397766e+000	(60.8231383146497dB,-1.70148099930726°)
1.10917481526240e+000	(60.8231165660757dB,-1.70540006483711°)
1.11173172728159e+000	(60.8230947172576dB,-1.70932814233874°)
1.11429453359173e+000	(60.823072767734dB,-1.71326525243278°)
1.11686324778056e+000	(60.8230507170413dB,-1.71721141578631°)
1.11943788346715e+000	(60.8230285647136dB,-1.72116665311302°)
1.12201845430196e+000	(60.8230063102832dB,-1.72513098517323°)
1.12460497396692e+000	(60.8229839532799dB,-1.72910443277408°)
1.12719745617551e+000	(60.8229614932315dB,-1.73308701676956°)
1.12979591467280e+000	(60.8229389296638dB,-1.73707875806063°)
1.13240036323556e+000	(60.8229162621001dB,-1.74107967759536°)
1.13501081567231e+000	(60.8228934900617dB,-1.74508979636896°)
1.13762728582343e+000	(60.8228706130678dB,-1.74910913542395°)
1.14024978756117e+000	(60.822847630635dB,-1.75313771585021°)
1.14287833478977e+000	(60.8228245422781dB,-1.75717555878512°)
1.14551294144553e+000	(60.8228013475095dB,-1.76122268541363°)
1.14815362149688e+000	(60.8227780458394dB,-1.76527911696838°)
1.15080038894443e+000	(60.8227546367757dB,-1.76934487472979°)
1.15345325782109e+000	(60.8227311198239dB,-1.7734199800262°)
1.15611224219210e+000	(60.8227074944876dB,-1.7775044542339°)
1.15877735615512e+000	(60.8226837602679dB,-1.78159831877731°)
1.16144861384034e+000	(60.8226599166634dB,-1.78570159512902°)
1.16412602941049e+000	(60.8226359631709dB,-1.78981430480994°)
1.16680961706096e+000	(60.8226118992844dB,-1.79393646938938°)
1.16949939101987e+000	(60.8225877244958dB,-1.79806811048515°)
1.17219536554813e+000	(60.8225634382948dB,-1.80220924976367°)
1.17489755493953e+000	(60.8225390401684dB,-1.80635990894009°)
1.17760597352080e+000	(60.8225145296016dB,-1.81052010977835°)
1.18032063565173e+000	(60.8224899060769dB,-1.81468987409135°)
1.18304155572516e+000	(60.8224651690742dB,-1.81886922374096°)
1.18576874816716e+000	(60.8224403180715dB,-1.82305818063824°)
1.18850222743702e+000	(60.8224153525439dB,-1.82725676674345°)
1.19124200802737e+000	(60.8223902719644dB,-1.83146500406621°)
1.19398810446427e+000	(60.8223650758035dB,-1.83568291466554°)
1.19674053130724e+000	(60.8223397635293dB,-1.83991052065007°)
1.19949930314938e+000	(60.8223143346073dB,-1.84414784417805°)
1.20226443461741e+000	(60.8222887885008dB,-1.8483949074575°)
1.20503594037179e+000	(60.8222631246704dB,-1.85265173274628°)
1.20781383510678e+000	(60.8222373425744dB,-1.85691834235227°)
1.21059813355048e+000	(60.8222114416685dB,-1.86119475863339°)
1.21338885046497e+000	(60.822185421406dB,-1.86548100399775°)
1.21618600064636e+000	(60.8221592812375dB,-1.86977710090376°)
1.21898959892486e+000	(60.8221330206113dB,-1.87408307186022°)
1.22179966016487e+000	(60.8221066389731dB,-1.87839893942644°)
1.22461619926504e+000	(60.8220801357661dB,-1.88272472621234°)
1.22743923115840e+000	(60.8220535104306dB,-1.88706045487852°)
1.23026877081238e+000	(60.8220267624049dB,-1.89140614813647°)
1.23310483322890e+000	(60.8219998911243dB,-1.89576182874857°)
1.23594743344451e+000	(60.8219728960216dB,-1.90012751952823°)
1.23879658653036e+000	(60.8219457765272dB,-1.90450324334005°)
1.24165230759241e+000	(60.8219185320685dB,-1.90888902309985°)
1.24451461177138e+000	(60.8218911620707dB,-1.91328488177481°)
1.24738351424294e+000	(60.821863665956dB,-1.91769084238361°)
1.25025903021771e+000	(60.8218360431442dB,-1.9221069279965°)
1.25314117494141e+000	(60.8218082930522dB,-1.92653316173539°)
1.25602996369487e+000	(60.8217804150946dB,-1.93096956677403°)
1.25892541179416e+000	(60.8217524086829dB,-1.93541616633806°)
1.26182753459066e+000	(60.8217242732261dB,-1.93987298370513°)
1.26473634747115e+000	(60.8216960081306dB,-1.94434004220502°)
1.26765186585784e+000	(60.8216676127997dB,-1.94881736521973°)
1.27057410520854e+000	(60.8216390866344dB,-1.95330497618365°)
1.27350308101666e+000	(60.8216104290327dB,-1.95780289858356°)
1.27643880881134e+000	(60.8215816393899dB,-1.96231115595887°)
1.27938130415752e+000	(60.8215527170985dB,-1.96682977190161°)
1.28233058265602e+000	(60.8215236615483dB,-1.97135877005664°)
1.28528665994361e+000	(60.8214944721261dB,-1.97589817412168°)
1.28824955169313e+000	(60.8214651482162dB,-1.98044800784747°)
1.29121927361353e+000	(60.8214356891997dB,-1.98500829503789°)
1.29419584144998e+000	(60.8214060944552dB,-1.98957905955001°)
1.29717927098395e+000	(60.8213763633582dB,-1.99416032529428°)
1.30016957803328e+000	(60.8213464952815dB,-1.99875211623457°)
1.30316677845229e+000	(60.821316489595dB,-2.00335445638832°)
1.30617088813183e+000	(60.8212863456656dB,-2.00796736982667°)
1.30918192299940e+000	(60.8212560628575dB,-2.01259088067453°)
1.31219989901920e+000	(60.8212256405317dB,-2.0172250131107°)
1.31522483219223e+000	(60.8211950780464dB,-2.02186979136801°)
1.31825673855640e+000	(60.8211643747571dB,-2.02652523973341°)
1.32129563418657e+000	(60.8211335300159dB,-2.03119138254808°)
1.32434153519466e+000	(60.8211025431723dB,-2.03586824420757°)
1.32739445772973e+000	(60.8210714135725dB,-2.04055584916187°)
1.33045441797808e+000	(60.82104014056dB,-2.04525422191557°)
1.33352143216332e+000	(60.8210087234752dB,-2.04996338702794°)
1.33659551654643e+000	(60.8209771616554dB,-2.05468336911305°)
1.33967668742593e+000	(60.8209454544348dB,-2.0594141928399°)
1.34276496113786e+000	(60.8209136011447dB,-2.06415588293252°)
1.34586035405594e+000	(60.8208816011133dB,-2.06890846417007°)
1.34896288259164e+000	(60.8208494536656dB,-2.07367196138699°)
1.35207256319427e+000	(60.8208171581238dB,-2.07844639947311°)
1.35518941235103e+000	(60.8207847138066dB,-2.08323180337372°)
1.35831344658715e+000	(60.8207521200299dB,-2.08802819808972°)
1.36144468246594e+000	(60.8207193761062dB,-2.09283560867774°)
1.36458313658892e+000	(60.8206864813452dB,-2.09765406025025°)
1.36772882559584e+000	(60.8206534350529dB,-2.10248357797566°)
1.37088176616484e+000	(60.8206202365327dB,-2.10732418707845°)
1.37404197501251e+000	(60.8205868850845dB,-2.11217591283929°)
1.37720946889394e+000	(60.8205533800049dB,-2.11703878059515°)
1.38038426460288e+000	(60.8205197205875dB,-2.1219128157394°)
1.38356637897177e+000	(60.8204859061226dB,-2.12679804372194°)
1.38675582887188e+000	(60.8204519358972dB,-2.13169449004935°)
1.38995263121334e+000	(60.820417809195dB,-2.13660218028493°)
1.39315680294529e+000	(60.8203835252965dB,-2.1415211400489°)
1.39636836105593e+000	(60.8203490834789dB,-2.14645139501845°)
1.39958732257261e+000	(60.820314483016dB,-2.15139297092789°)
1.40281370456195e+000	(60.8202797231783dB,-2.15634589356878°)
1.40604752412990e+000	(60.8202448032331dB,-2.16131018879002°)
1.40928879842186e+000	(60.8202097224441dB,-2.16628588249798°)
1.41253754462274e+000	(60.8201744800718dB,-2.1712730006566°)
1.41579377995707e+000	(60.8201390753733dB,-2.17627156928753°)
1.41905752168908e+000	(60.8201035076023dB,-2.18128161447027°)
1.42232878712281e+000	(60.8200677760089dB,-2.18630316234224°)
1.42560759360218e+000	(60.82003187984dB,-2.19133623909889°)
1.42889395851109e+000	(60.8199958183389dB,-2.19638087099391°)
1.43218789927353e+000	(60.8199595907456dB,-2.20143708433922°)
1.43548943335364e+000	(60.8199231962964dB,-2.20650490550522°)
1.43879857825583e+000	(60.8198866342242dB,-2.21158436092079°)
1.44211535152486e+000	(60.8198499037584dB,-2.21667547707349°)
1.44543977074592e+000	(60.8198130041249dB,-2.22177828050965°)
1.44877185354475e+000	(60.819775934546dB,-2.22689279783451°)
1.45211161758773e+000	(60.8197386942405dB,-2.23201905571229°)
1.45545908058195e+000	(60.8197012824235dB,-2.23715708086638°)
1.45881426027534e+000	(60.8196636983066dB,-2.24230690007939°)
1.46217717445671e+000	(60.8196259410977dB,-2.24746854019331°)
1.46554784095590e+000	(60.8195880100013dB,-2.25264202810966°)
1.46892627764385e+000	(60.819549904218dB,-2.25782739078954°)
1.47231250243271e+000	(60.8195116229448dB,-2.26302465525379°)
1.47570653327588e+000	(60.8194731653751dB,-2.26823384858311°)
1.47910838816819e+000	(60.8194345306986dB,-2.2734549979182°)
1.48251808514594e+000	(60.8193957181012dB,-2.27868813045983°)
1.48593564228699e+000	(60.8193567267652dB,-2.283933273469°)
1.48936107771090e+000	(60.819317555869dB,-2.28919045426707°)
1.49279440957898e+000	(60.8192782045873dB,-2.29445970023584°)
1.49623565609442e+000	(60.8192386720911dB,-2.29974103881773°)
1.49968483550236e+000	(60.8191989575476dB,-2.30503449751582°)
1.50314196609001e+000	(60.81915906012dB,-2.31034010389407°)
1.50660706618673e+000	(60.8191189789678dB,-2.31565788557738°)
1.51008015416413e+000	(60.8190787132468dB,-2.32098787025171°)
1.51356124843619e+000	(60.8190382621087dB,-2.32633008566424°)
1.51705036745932e+000	(60.8189976247014dB,-2.33168455962346°)
1.52054752973248e+000	(60.8189568001689dB,-2.33705131999932°)
1.52405275379728e+000	(60.8189157876513dB,-2.34243039472333°)
1.52756605823806e+000	(60.8188745862848dB,-2.34782181178869°)
1.53108746168202e+000	(60.8188331952015dB,-2.35322559925043°)
1.53461698279928e+000	(60.8187916135297dB,-2.3586417852255°)
1.53815464030302e+000	(60.8187498403936dB,-2.36407039789293°)
1.54170045294954e+000	(60.8187078749134dB,-2.36951146549393°)
1.54525443953840e+000	(60.8186657162053dB,-2.37496501633204°)
1.54881661891247e+000	(60.8186233633815dB,-2.38043107877322°)
1.55238700995807e+000	(60.8185808155501dB,-2.38590968124599°)
1.55596563160506e+000	(60.8185380718151dB,-2.39140085224156°)
1.55955250282694e+000	(60.8184951312764dB,-2.39690462031397°)
1.56314764264094e+000	(60.8184519930299dB,-2.40242101408016°)
1.56675107010813e+000	(60.818408656167dB,-2.40795006222017°)
1.57036280433354e+000	(60.8183651197754dB,-2.4134917934772°)
1.57398286446620e+000	(60.8183213829384dB,-2.41904623665779°)
1.57761126969933e+000	(60.8182774447351dB,-2.42461342063187°)
1.58124803927037e+000	(60.8182333042404dB,-2.43019337433299°)
1.58489319246110e+000	(60.8181889605251dB,-2.43578612675835°)
1.58854674859776e+000	(60.8181444126555dB,-2.44139170696898°)
1.59220872705115e+000	(60.8180996596938dB,-2.44701014408987°)
1.59587914723672e+000	(60.818054700698dB,-2.45264146731004°)
1.59955802861465e+000	(60.8180095347215dB,-2.45828570588274°)
1.60324539069002e+000	(60.8179641608136dB,-2.46394288912552°)
1.60694125301286e+000	(60.8179185780192dB,-2.4696130464204°)
1.61064563517825e+000	(60.8178727853789dB,-2.47529620721395°)
1.61435855682647e+000	(60.8178267819287dB,-2.48099240101746°)
1.61808003764305e+000	(60.8177805667004dB,-2.48670165740706°)
1.62181009735891e+000	(60.8177341387213dB,-2.4924240060238°)
1.62554875575047e+000	(60.8176874970143dB,-2.49815947657386°)
1.62929603263970e+000	(60.8176406405977dB,-2.50390809882861°)
1.63305194789432e+000	(60.8175935684854dB,-2.50966990262476°)
1.63681652142779e+000	(60.8175462796869dB,-2.51544491786448°)
1.64058977319952e+000	(60.8174987732069dB,-2.52123317451556°)
1.64437172321491e+000	(60.8174510480459dB,-2.52703470261151°)
1.64816239152549e+000	(60.8174031031995dB,-2.53284953225168°)
1.65196179822900e+000	(60.8173549376589dB,-2.53867769360141°)
1.65576996346951e+000	(60.8173065504106dB,-2.54451921689215°)
1.65958690743754e+000	(60.8172579404366dB,-2.55037413242159°)
1.66341265037015e+000	(60.8172091067141dB,-2.55624247055379°)
1.66724721255104e+000	(60.8171600482157dB,-2.56212426171931°)
1.67109061431069e+000	(60.8171107639092dB,-2.56801953641533°)
1.67494287602642e+000	(60.8170612527579dB,-2.57392832520579°)
1.67880401812254e+000	(60.8170115137202dB,-2.57985065872151°)
1.68267406107045e+000	(60.8169615457498dB,-2.58578656766034°)
1.68655302538872e+000	(60.8169113477954dB,-2.59173608278725°)
1.69044093164324e+000	(60.8168609188014dB,-2.59769923493452°)
1.69433780044731e+000	(60.8168102577068dB,-2.6036760550018°)
1.69824365246172e+000	(60.8167593634461dB,-2.6096665739563°)
1.70215850839493e+000	(60.816708234949dB,-2.61567082283288°)
1.70608238900310e+000	(60.8166568711399dB,-2.6216888327342°)
1.71001531509027e+000	(60.8166052709388dB,-2.62772063483085°)
1.71395730750840e+000	(60.8165534332603dB,-2.63376626036149°)
1.71790838715757e+000	(60.8165013570145dB,-2.63982574063293°)
1.72186857498599e+000	(60.8164490411061dB,-2.64589910702033°)
1.72583789199018e+000	(60.816396484435dB,-2.65198639096729°)
1.72981635921508e+000	(60.8163436858961dB,-2.658087623986°)
1.73380399775412e+000	(60.8162906443792dB,-2.66420283765733°)
1.73780082874935e+000	(60.8162373587691dB,-2.67033206363104°)
1.74180687339159e+000	(60.8161838279453dB,-2.67647533362583°)
1.74582215292048e+000	(60.8161300507825dB,-2.68263267942952°)
1.74984668862464e+000	(60.81607602615dB,-2.68880413289917°)
1.75388050184174e+000	(60.816021752912dB,-2.6949897259612°)
1.75792361395867e+000	(60.8159672299276dB,-2.70118949061154°)
1.76197604641161e+000	(60.8159124560507dB,-2.70740345891576°)
1.76603782068614e+000	(60.8158574301298dB,-2.71363166300917°)
1.77010895831740e+000	(60.8158021510083dB,-2.719874135097°)
1.77418948089014e+000	(60.8157466175243dB,-2.72613090745452°)
1.77827941003890e+000	(60.8156908285105dB,-2.73240201242714°)
1.78237876744807e+000	(60.8156347827944dB,-2.73868748243059°)
1.78648757485203e+000	(60.8155784791982dB,-2.744987349951°)
1.79060585403527e+000	(60.8155219165383dB,-2.75130164754507°)
1.79473362683250e+000	(60.8154650936264dB,-2.75763040784023°)
1.79887091512876e+000	(60.8154080092681dB,-2.76397366353469°)
1.80301774085955e+000	(60.815350662264dB,-2.77033144739763°)
1.80717412601090e+000	(60.815293051409dB,-2.77670379226936°)
1.81134009261958e+000	(60.8152351754927dB,-2.78309073106136°)
1.81551566277311e+000	(60.8151770332988dB,-2.78949229675651°)
1.81970085860996e+000	(60.815118623606dB,-2.79590852240919°)
1.82389570231961e+000	(60.815059945187dB,-2.80233944114539°)
1.82810021614272e+000	(60.815000996809dB,-2.80878508616284°)
1.83231442237119e+000	(60.8149417772338dB,-2.81524549073123°)
1.83653834334832e+000	(60.8148822852171dB,-2.82172068819219°)
1.84077200146893e+000	(60.8148225195094dB,-2.82821071195961°)
1.84501541917945e+000	(60.8147624788552dB,-2.8347155955196°)
1.84926861897805e+000	(60.8147021619934dB,-2.84123537243075°)
1.85353162341479e+000	(60.8146415676571dB,-2.84777007632417°)
1.85780445509167e+000	(60.8145806945737dB,-2.85431974090373°)
1.86208713666284e+000	(60.8145195414647dB,-2.86088439994608°)
1.86637969083464e+000	(60.8144581070459dB,-2.86746408730087°)
1.87068214036577e+000	(60.814396390027dB,-2.87405883689084°)
1.87499450806739e+000	(60.8143343891122dB,-2.88066868271198°)
1.87931681680324e+000	(60.8142721029993dB,-2.88729365883364°)
1.88364908948977e+000	(60.8142095303807dB,-2.8939337993987°)
1.88799134909627e+000	(60.8141466699425dB,-2.90058913862365°)
1.89234361864495e+000	(60.8140835203648dB,-2.90725971079878°)
1.89670592121112e+000	(60.8140200803219dB,-2.9139455502883°)
1.90107827992327e+000	(60.8139563484819dB,-2.92064669153045°)
1.90546071796322e+000	(60.8138923235068dB,-2.92736316903766°)
1.90985325856621e+000	(60.8138280040527dB,-2.93409501739668°)
1.91425592502106e+000	(60.8137633887693dB,-2.94084227126873°)
1.91866874067026e+000	(60.8136984763005dB,-2.94760496538958°)
1.92309172891013e+000	(60.8136332652836dB,-2.95438313456976°)
1.92752491319091e+000	(60.8135677543501dB,-2.96117681369466°)
1.93196831701690e+000	(60.813501942125dB,-2.96798603772465°)
1.93642196394658e+000	(60.8134358272271dB,-2.97481084169523°)
1.94088587759275e+000	(60.813369408269dB,-2.98165126071719°)
1.94536008162263e+000	(60.8133026838568dB,-2.9885073299767°)
1.94984459975802e+000	(60.8132356525906dB,-2.99537908473549°)
1.95433945577537e+000	(60.8131683130636dB,-3.00226656033095°)
1.95884467350596e+000	(60.8131006638631dB,-3.00916979217628°)
1.96336027683602e+000	(60.8130327035697dB,-3.01608881576065°)
1.96788628970682e+000	(60.8129644307575dB,-3.02302366664929°)
1.97242273611482e+000	(60.8128958439943dB,-3.02997438048365°)
1.97696964011183e+000	(60.8128269418413dB,-3.03694099298155°)
1.98152702580507e+000	(60.8127577228531dB,-3.04392353993731°)
1.98609491735734e+000	(60.8126881855778dB,-3.05092205722184°)
1.99067333898716e+000	(60.8126183285568dB,-3.05793658078285°)
1.99526231496885e+000	(60.8125481503249dB,-3.06496714664494°)
1.99986186963271e+000	(60.8124776494103dB,-3.07201379090975°)
2.00447202736513e+000	(60.8124068243344dB,-3.07907654975608°)
2.00909281260870e+000	(60.8123356736119dB,-3.08615545944006°)
2.01372424986236e+000	(60.8122641957509dB,-3.09325055629527°)
2.01836636368153e+000	(60.8121923892525dB,-3.10036187673284°)
2.02301917867824e+000	(60.812120252611dB,-3.10748945724165°)
2.02768271952125e+000	(60.8120477843141dB,-3.11463333438843°)
2.03235701093619e+000	(60.8119749828422dB,-3.1217935448179°)
2.03704207770569e+000	(60.8119018466691dB,-3.12897012525291°)
2.04173794466950e+000	(60.8118283742617dB,-3.13616311249458°)
2.04644463672464e+000	(60.8117545640797dB,-3.14337254342242°)
2.05116217882553e+000	(60.8116804145759dB,-3.15059845499451°)
2.05589059598411e+000	(60.8116059241962dB,-3.15784088424757°)
2.06062991326997e+000	(60.8115310913792dB,-3.16509986829716°)
2.06538015581050e+000	(60.8114559145566dB,-3.17237544433778°)
2.07014134879101e+000	(60.8113803921528dB,-3.17966764964301°)
2.07491351745488e+000	(60.8113045225851dB,-3.18697652156566°)
2.07969668710366e+000	(60.8112283042637dB,-3.1943020975379°)
2.08449088309726e+000	(60.8111517355915dB,-3.2016444150714°)
2.08929613085401e+000	(60.8110748149641dB,-3.20900351175747°)
2.09411245585086e+000	(60.8109975407699dB,-3.21637942526717°)
2.09893988362349e+000	(60.81091991139dB,-3.22377219335149°)
