Freq.	V(n007)/I(R4)
1.00000000000000e+000	(6.08240026537504e+001dB,-1.53765906829970e+000°)
1.00230523807790e+000	(6.08239848895540e+001dB,-1.54120133348096e+000°)
1.00461579027840e+000	(6.08239670434605e+001dB,-1.54475174785419e+000°)
1.00693166885180e+000	(6.08239491150926e+001dB,-1.54831033009122e+000°)
1.00925288607668e+000	(6.08239311040713e+001dB,-1.55187709890610e+000°)
1.01157945425990e+000	(6.08239130100162e+001dB,-1.55545207305527e+000°)
1.01391138573668e+000	(6.08238948325447e+001dB,-1.55903527133759e+000°)
1.01624869287070e+000	(6.08238765712726e+001dB,-1.56262671259446e+000°)
1.01859138805412e+000	(6.08238582258141e+001dB,-1.56622641570992e+000°)
1.02093948370768e+000	(6.08238397957815e+001dB,-1.56983439961072e+000°)
1.02329299228075e+000	(6.08238212807851e+001dB,-1.57345068326643e+000°)
1.02565192625141e+000	(6.08238026804338e+001dB,-1.57707528568952e+000°)
1.02801629812647e+000	(6.08237839943346e+001dB,-1.58070822593547e+000°)
1.03038612044162e+000	(6.08237652220923e+001dB,-1.58434952310285e+000°)
1.03276140576140e+000	(6.08237463633105e+001dB,-1.58799919633340e+000°)
1.03514216667934e+000	(6.08237274175905e+001dB,-1.59165726481218e+000°)
1.03752841581801e+000	(6.08237083845320e+001dB,-1.59532374776759e+000°)
1.03992016582906e+000	(6.08236892637329e+001dB,-1.59899866447152e+000°)
1.04231742939330e+000	(6.08236700547889e+001dB,-1.60268203423941e+000°)
1.04472021922080e+000	(6.08236507572944e+001dB,-1.60637387643036e+000°)
1.04712854805090e+000	(6.08236313708414e+001dB,-1.61007421044724e+000°)
1.04954242865232e+000	(6.08236118950204e+001dB,-1.61378305573674e+000°)
1.05196187382322e+000	(6.08235923294197e+001dB,-1.61750043178952e+000°)
1.05438689639126e+000	(6.08235726736261e+001dB,-1.62122635814026e+000°)
1.05681750921366e+000	(6.08235529272242e+001dB,-1.62496085436777e+000°)
1.05925372517729e+000	(6.08235330897967e+001dB,-1.62870394009511e+000°)
1.06169555719872e+000	(6.08235131609245e+001dB,-1.63245563498965e+000°)
1.06414301822431e+000	(6.08234931401866e+001dB,-1.63621595876318e+000°)
1.06659612123026e+000	(6.08234730271598e+001dB,-1.63998493117200e+000°)
1.06905487922266e+000	(6.08234528214194e+001dB,-1.64376257201704e+000°)
1.07151930523761e+000	(6.08234325225384e+001dB,-1.64754890114394e+000°)
1.07398941234124e+000	(6.08234121300879e+001dB,-1.65134393844312e+000°)
1.07646521362983e+000	(6.08233916436371e+001dB,-1.65514770384993e+000°)
1.07894672222983e+000	(6.08233710627531e+001dB,-1.65896021734471e+000°)
1.08143395129794e+000	(6.08233503870012e+001dB,-1.66278149895289e+000°)
1.08392691402120e+000	(6.08233296159446e+001dB,-1.66661156874509e+000°)
1.08642562361706e+000	(6.08233087491445e+001dB,-1.67045044683726e+000°)
1.08893009333343e+000	(6.08232877861600e+001dB,-1.67429815339069e+000°)
1.09144033644876e+000	(6.08232667265483e+001dB,-1.67815470861218e+000°)
1.09395636627209e+000	(6.08232455698645e+001dB,-1.68202013275411e+000°)
1.09647819614318e+000	(6.08232243156617e+001dB,-1.68589444611456e+000°)
1.09900583943252e+000	(6.08232029634909e+001dB,-1.68977766903738e+000°)
1.10153930954141e+000	(6.08231815129011e+001dB,-1.69366982191228e+000°)
1.10407861990207e+000	(6.08231599634391e+001dB,-1.69757092517498e+000°)
1.10662378397766e+000	(6.08231383146497e+001dB,-1.70148099930726e+000°)
1.10917481526240e+000	(6.08231165660757e+001dB,-1.70540006483711e+000°)
1.11173172728159e+000	(6.08230947172576e+001dB,-1.70932814233874e+000°)
1.11429453359173e+000	(6.08230727677340e+001dB,-1.71326525243278e+000°)
1.11686324778056e+000	(6.08230507170413e+001dB,-1.71721141578631e+000°)
1.11943788346715e+000	(6.08230285647136e+001dB,-1.72116665311302e+000°)
1.12201845430196e+000	(6.08230063102832e+001dB,-1.72513098517323e+000°)
1.12460497396692e+000	(6.08229839532799e+001dB,-1.72910443277408e+000°)
1.12719745617551e+000	(6.08229614932315e+001dB,-1.73308701676956e+000°)
1.12979591467280e+000	(6.08229389296638e+001dB,-1.73707875806063e+000°)
1.13240036323556e+000	(6.08229162621001e+001dB,-1.74107967759536e+000°)
1.13501081567231e+000	(6.08228934900617e+001dB,-1.74508979636896e+000°)
1.13762728582343e+000	(6.08228706130678e+001dB,-1.74910913542395e+000°)
1.14024978756117e+000	(6.08228476306350e+001dB,-1.75313771585021e+000°)
1.14287833478977e+000	(6.08228245422781e+001dB,-1.75717555878512e+000°)
1.14551294144553e+000	(6.08228013475095e+001dB,-1.76122268541363e+000°)
1.14815362149688e+000	(6.08227780458394e+001dB,-1.76527911696838e+000°)
1.15080038894443e+000	(6.08227546367757e+001dB,-1.76934487472979e+000°)
1.15345325782109e+000	(6.08227311198239e+001dB,-1.77341998002620e+000°)
1.15611224219210e+000	(6.08227074944876e+001dB,-1.77750445423390e+000°)
1.15877735615512e+000	(6.08226837602679e+001dB,-1.78159831877731e+000°)
1.16144861384034e+000	(6.08226599166634e+001dB,-1.78570159512902e+000°)
1.16412602941049e+000	(6.08226359631709e+001dB,-1.78981430480994e+000°)
1.16680961706096e+000	(6.08226118992844e+001dB,-1.79393646938938e+000°)
1.16949939101987e+000	(6.08225877244958e+001dB,-1.79806811048515e+000°)
1.17219536554813e+000	(6.08225634382948e+001dB,-1.80220924976367e+000°)
1.17489755493953e+000	(6.08225390401684e+001dB,-1.80635990894009e+000°)
1.17760597352080e+000	(6.08225145296016e+001dB,-1.81052010977835e+000°)
1.18032063565173e+000	(6.08224899060769e+001dB,-1.81468987409135e+000°)
1.18304155572516e+000	(6.08224651690742e+001dB,-1.81886922374096e+000°)
1.18576874816716e+000	(6.08224403180715e+001dB,-1.82305818063824e+000°)
1.18850222743702e+000	(6.08224153525439e+001dB,-1.82725676674345e+000°)
1.19124200802737e+000	(6.08223902719644e+001dB,-1.83146500406621e+000°)
1.19398810446427e+000	(6.08223650758035e+001dB,-1.83568291466554e+000°)
1.19674053130724e+000	(6.08223397635293e+001dB,-1.83991052065007e+000°)
1.19949930314938e+000	(6.08223143346073e+001dB,-1.84414784417805e+000°)
1.20226443461741e+000	(6.08222887885008e+001dB,-1.84839490745750e+000°)
1.20503594037179e+000	(6.08222631246704e+001dB,-1.85265173274628e+000°)
1.20781383510678e+000	(6.08222373425744e+001dB,-1.85691834235227e+000°)
1.21059813355048e+000	(6.08222114416685e+001dB,-1.86119475863339e+000°)
1.21338885046497e+000	(6.08221854214060e+001dB,-1.86548100399775e+000°)
1.21618600064636e+000	(6.08221592812375e+001dB,-1.86977710090376e+000°)
1.21898959892486e+000	(6.08221330206113e+001dB,-1.87408307186022e+000°)
1.22179966016487e+000	(6.08221066389731e+001dB,-1.87839893942644e+000°)
1.22461619926504e+000	(6.08220801357661e+001dB,-1.88272472621234e+000°)
1.22743923115840e+000	(6.08220535104306e+001dB,-1.88706045487852e+000°)
1.23026877081238e+000	(6.08220267624049e+001dB,-1.89140614813647e+000°)
1.23310483322890e+000	(6.08219998911243e+001dB,-1.89576182874857e+000°)
1.23594743344451e+000	(6.08219728960216e+001dB,-1.90012751952823e+000°)
1.23879658653036e+000	(6.08219457765272e+001dB,-1.90450324334005e+000°)
1.24165230759241e+000	(6.08219185320685e+001dB,-1.90888902309985e+000°)
1.24451461177138e+000	(6.08218911620707e+001dB,-1.91328488177481e+000°)
1.24738351424294e+000	(6.08218636659560e+001dB,-1.91769084238361e+000°)
1.25025903021771e+000	(6.08218360431442e+001dB,-1.92210692799650e+000°)
1.25314117494141e+000	(6.08218082930522e+001dB,-1.92653316173539e+000°)
1.25602996369487e+000	(6.08217804150946e+001dB,-1.93096956677403e+000°)
1.25892541179416e+000	(6.08217524086829e+001dB,-1.93541616633806e+000°)
1.26182753459066e+000	(6.08217242732261e+001dB,-1.93987298370513e+000°)
1.26473634747115e+000	(6.08216960081306e+001dB,-1.94434004220502e+000°)
1.26765186585784e+000	(6.08216676127997e+001dB,-1.94881736521973e+000°)
1.27057410520854e+000	(6.08216390866344e+001dB,-1.95330497618365e+000°)
1.27350308101666e+000	(6.08216104290327e+001dB,-1.95780289858356e+000°)
1.27643880881134e+000	(6.08215816393899e+001dB,-1.96231115595887e+000°)
1.27938130415752e+000	(6.08215527170985e+001dB,-1.96682977190161e+000°)
1.28233058265602e+000	(6.08215236615483e+001dB,-1.97135877005664e+000°)
1.28528665994361e+000	(6.08214944721261e+001dB,-1.97589817412168e+000°)
1.28824955169313e+000	(6.08214651482162e+001dB,-1.98044800784747e+000°)
1.29121927361353e+000	(6.08214356891997e+001dB,-1.98500829503789e+000°)
1.29419584144998e+000	(6.08214060944552e+001dB,-1.98957905955001e+000°)
1.29717927098395e+000	(6.08213763633582e+001dB,-1.99416032529428e+000°)
1.30016957803328e+000	(6.08213464952815e+001dB,-1.99875211623457e+000°)
1.30316677845229e+000	(6.08213164895950e+001dB,-2.00335445638832e+000°)
1.30617088813183e+000	(6.08212863456656e+001dB,-2.00796736982667e+000°)
1.30918192299940e+000	(6.08212560628575e+001dB,-2.01259088067453e+000°)
1.31219989901920e+000	(6.08212256405317e+001dB,-2.01722501311070e+000°)
1.31522483219223e+000	(6.08211950780464e+001dB,-2.02186979136801e+000°)
1.31825673855640e+000	(6.08211643747571e+001dB,-2.02652523973341e+000°)
1.32129563418657e+000	(6.08211335300159e+001dB,-2.03119138254808e+000°)
1.32434153519466e+000	(6.08211025431723e+001dB,-2.03586824420757e+000°)
1.32739445772973e+000	(6.08210714135725e+001dB,-2.04055584916187e+000°)
1.33045441797808e+000	(6.08210401405600e+001dB,-2.04525422191557e+000°)
1.33352143216332e+000	(6.08210087234752e+001dB,-2.04996338702794e+000°)
1.33659551654643e+000	(6.08209771616554e+001dB,-2.05468336911305e+000°)
1.33967668742593e+000	(6.08209454544348e+001dB,-2.05941419283990e+000°)
1.34276496113786e+000	(6.08209136011447e+001dB,-2.06415588293252e+000°)
1.34586035405594e+000	(6.08208816011133e+001dB,-2.06890846417007e+000°)
1.34896288259164e+000	(6.08208494536656e+001dB,-2.07367196138699e+000°)
1.35207256319427e+000	(6.08208171581238e+001dB,-2.07844639947311e+000°)
1.35518941235103e+000	(6.08207847138066e+001dB,-2.08323180337372e+000°)
1.35831344658715e+000	(6.08207521200299e+001dB,-2.08802819808972e+000°)
1.36144468246594e+000	(6.08207193761062e+001dB,-2.09283560867774e+000°)
1.36458313658892e+000	(6.08206864813452e+001dB,-2.09765406025025e+000°)
1.36772882559584e+000	(6.08206534350529e+001dB,-2.10248357797566e+000°)
1.37088176616484e+000	(6.08206202365327e+001dB,-2.10732418707845e+000°)
1.37404197501251e+000	(6.08205868850845e+001dB,-2.11217591283929e+000°)
1.37720946889394e+000	(6.08205533800049e+001dB,-2.11703878059515e+000°)
1.38038426460288e+000	(6.08205197205875e+001dB,-2.12191281573940e+000°)
1.38356637897177e+000	(6.08204859061226e+001dB,-2.12679804372194e+000°)
1.38675582887188e+000	(6.08204519358972e+001dB,-2.13169449004935e+000°)
1.38995263121334e+000	(6.08204178091950e+001dB,-2.13660218028493e+000°)
1.39315680294529e+000	(6.08203835252965e+001dB,-2.14152114004890e+000°)
1.39636836105593e+000	(6.08203490834789e+001dB,-2.14645139501845e+000°)
1.39958732257261e+000	(6.08203144830160e+001dB,-2.15139297092789e+000°)
1.40281370456195e+000	(6.08202797231783e+001dB,-2.15634589356878e+000°)
1.40604752412990e+000	(6.08202448032331e+001dB,-2.16131018879002e+000°)
1.40928879842186e+000	(6.08202097224441e+001dB,-2.16628588249798e+000°)
1.41253754462274e+000	(6.08201744800718e+001dB,-2.17127300065660e+000°)
1.41579377995707e+000	(6.08201390753733e+001dB,-2.17627156928753e+000°)
1.41905752168908e+000	(6.08201035076023e+001dB,-2.18128161447027e+000°)
1.42232878712281e+000	(6.08200677760089e+001dB,-2.18630316234224e+000°)
1.42560759360218e+000	(6.08200318798400e+001dB,-2.19133623909889e+000°)
1.42889395851109e+000	(6.08199958183389e+001dB,-2.19638087099391e+000°)
1.43218789927353e+000	(6.08199595907456e+001dB,-2.20143708433922e+000°)
1.43548943335364e+000	(6.08199231962964e+001dB,-2.20650490550522e+000°)
1.43879857825583e+000	(6.08198866342242e+001dB,-2.21158436092079e+000°)
1.44211535152486e+000	(6.08198499037584e+001dB,-2.21667547707349e+000°)
1.44543977074592e+000	(6.08198130041249e+001dB,-2.22177828050965e+000°)
1.44877185354475e+000	(6.08197759345460e+001dB,-2.22689279783451e+000°)
1.45211161758773e+000	(6.08197386942405e+001dB,-2.23201905571229e+000°)
1.45545908058195e+000	(6.08197012824235e+001dB,-2.23715708086638e+000°)
1.45881426027534e+000	(6.08196636983066e+001dB,-2.24230690007939e+000°)
1.46217717445671e+000	(6.08196259410977e+001dB,-2.24746854019331e+000°)
1.46554784095590e+000	(6.08195880100013e+001dB,-2.25264202810966e+000°)
1.46892627764385e+000	(6.08195499042180e+001dB,-2.25782739078954e+000°)
1.47231250243271e+000	(6.08195116229448e+001dB,-2.26302465525379e+000°)
1.47570653327588e+000	(6.08194731653751e+001dB,-2.26823384858311e+000°)
1.47910838816819e+000	(6.08194345306986e+001dB,-2.27345499791820e+000°)
1.48251808514594e+000	(6.08193957181012e+001dB,-2.27868813045983e+000°)
1.48593564228699e+000	(6.08193567267652e+001dB,-2.28393327346900e+000°)
1.48936107771090e+000	(6.08193175558690e+001dB,-2.28919045426707e+000°)
1.49279440957898e+000	(6.08192782045873e+001dB,-2.29445970023584e+000°)
1.49623565609442e+000	(6.08192386720911e+001dB,-2.29974103881773e+000°)
1.49968483550236e+000	(6.08191989575476e+001dB,-2.30503449751582e+000°)
1.50314196609001e+000	(6.08191590601200e+001dB,-2.31034010389407e+000°)
1.50660706618673e+000	(6.08191189789678e+001dB,-2.31565788557738e+000°)
1.51008015416413e+000	(6.08190787132468e+001dB,-2.32098787025171e+000°)
1.51356124843619e+000	(6.08190382621087e+001dB,-2.32633008566424e+000°)
1.51705036745932e+000	(6.08189976247014e+001dB,-2.33168455962346e+000°)
1.52054752973248e+000	(6.08189568001689e+001dB,-2.33705131999932e+000°)
1.52405275379728e+000	(6.08189157876513e+001dB,-2.34243039472333e+000°)
1.52756605823806e+000	(6.08188745862848e+001dB,-2.34782181178869e+000°)
1.53108746168202e+000	(6.08188331952015e+001dB,-2.35322559925043e+000°)
1.53461698279928e+000	(6.08187916135297e+001dB,-2.35864178522550e+000°)
1.53815464030302e+000	(6.08187498403936e+001dB,-2.36407039789293e+000°)
1.54170045294954e+000	(6.08187078749134e+001dB,-2.36951146549393e+000°)
1.54525443953840e+000	(6.08186657162053e+001dB,-2.37496501633204e+000°)
1.54881661891247e+000	(6.08186233633815e+001dB,-2.38043107877322e+000°)
1.55238700995807e+000	(6.08185808155501e+001dB,-2.38590968124599e+000°)
1.55596563160506e+000	(6.08185380718151e+001dB,-2.39140085224156e+000°)
1.55955250282694e+000	(6.08184951312764e+001dB,-2.39690462031397e+000°)
1.56314764264094e+000	(6.08184519930299e+001dB,-2.40242101408016e+000°)
1.56675107010813e+000	(6.08184086561670e+001dB,-2.40795006222017e+000°)
1.57036280433354e+000	(6.08183651197754e+001dB,-2.41349179347720e+000°)
1.57398286446620e+000	(6.08183213829384e+001dB,-2.41904623665779e+000°)
1.57761126969933e+000	(6.08182774447351e+001dB,-2.42461342063187e+000°)
1.58124803927037e+000	(6.08182333042404e+001dB,-2.43019337433299e+000°)
1.58489319246110e+000	(6.08181889605251e+001dB,-2.43578612675835e+000°)
1.58854674859776e+000	(6.08181444126555e+001dB,-2.44139170696898e+000°)
1.59220872705115e+000	(6.08180996596938e+001dB,-2.44701014408987e+000°)
1.59587914723672e+000	(6.08180547006980e+001dB,-2.45264146731004e+000°)
1.59955802861465e+000	(6.08180095347215e+001dB,-2.45828570588274e+000°)
1.60324539069002e+000	(6.08179641608136e+001dB,-2.46394288912552e+000°)
1.60694125301286e+000	(6.08179185780192e+001dB,-2.46961304642040e+000°)
1.61064563517825e+000	(6.08178727853789e+001dB,-2.47529620721395e+000°)
1.61435855682647e+000	(6.08178267819287e+001dB,-2.48099240101746e+000°)
1.61808003764305e+000	(6.08177805667004e+001dB,-2.48670165740706e+000°)
1.62181009735891e+000	(6.08177341387213e+001dB,-2.49242400602380e+000°)
1.62554875575047e+000	(6.08176874970143e+001dB,-2.49815947657386e+000°)
1.62929603263970e+000	(6.08176406405977e+001dB,-2.50390809882861e+000°)
1.63305194789432e+000	(6.08175935684854e+001dB,-2.50966990262476e+000°)
1.63681652142779e+000	(6.08175462796869e+001dB,-2.51544491786448e+000°)
1.64058977319952e+000	(6.08174987732069e+001dB,-2.52123317451556e+000°)
1.64437172321491e+000	(6.08174510480459e+001dB,-2.52703470261151e+000°)
1.64816239152549e+000	(6.08174031031995e+001dB,-2.53284953225168e+000°)
1.65196179822900e+000	(6.08173549376589e+001dB,-2.53867769360141e+000°)
1.65576996346951e+000	(6.08173065504106e+001dB,-2.54451921689215e+000°)
1.65958690743754e+000	(6.08172579404366e+001dB,-2.55037413242159e+000°)
1.66341265037015e+000	(6.08172091067141e+001dB,-2.55624247055379e+000°)
1.66724721255104e+000	(6.08171600482157e+001dB,-2.56212426171931e+000°)
1.67109061431069e+000	(6.08171107639092e+001dB,-2.56801953641533e+000°)
1.67494287602642e+000	(6.08170612527579e+001dB,-2.57392832520579e+000°)
1.67880401812254e+000	(6.08170115137202e+001dB,-2.57985065872151e+000°)
1.68267406107045e+000	(6.08169615457498e+001dB,-2.58578656766034e+000°)
1.68655302538872e+000	(6.08169113477954e+001dB,-2.59173608278725e+000°)
1.69044093164324e+000	(6.08168609188014e+001dB,-2.59769923493452e+000°)
1.69433780044731e+000	(6.08168102577068e+001dB,-2.60367605500180e+000°)
1.69824365246172e+000	(6.08167593634461e+001dB,-2.60966657395630e+000°)
1.70215850839493e+000	(6.08167082349490e+001dB,-2.61567082283288e+000°)
1.70608238900310e+000	(6.08166568711399e+001dB,-2.62168883273420e+000°)
1.71001531509027e+000	(6.08166052709388e+001dB,-2.62772063483085e+000°)
1.71395730750840e+000	(6.08165534332603e+001dB,-2.63376626036149e+000°)
1.71790838715757e+000	(6.08165013570145e+001dB,-2.63982574063293e+000°)
1.72186857498599e+000	(6.08164490411061e+001dB,-2.64589910702033e+000°)
1.72583789199018e+000	(6.08163964844350e+001dB,-2.65198639096729e+000°)
1.72981635921508e+000	(6.08163436858961e+001dB,-2.65808762398600e+000°)
1.73380399775412e+000	(6.08162906443792e+001dB,-2.66420283765733e+000°)
1.73780082874935e+000	(6.08162373587691e+001dB,-2.67033206363104e+000°)
1.74180687339159e+000	(6.08161838279453e+001dB,-2.67647533362583e+000°)
1.74582215292048e+000	(6.08161300507825e+001dB,-2.68263267942952e+000°)
1.74984668862464e+000	(6.08160760261500e+001dB,-2.68880413289917e+000°)
1.75388050184174e+000	(6.08160217529120e+001dB,-2.69498972596120e+000°)
1.75792361395867e+000	(6.08159672299276e+001dB,-2.70118949061154e+000°)
1.76197604641161e+000	(6.08159124560507e+001dB,-2.70740345891576e+000°)
1.76603782068614e+000	(6.08158574301298e+001dB,-2.71363166300917e+000°)
1.77010895831740e+000	(6.08158021510083e+001dB,-2.71987413509700e+000°)
1.77418948089014e+000	(6.08157466175243e+001dB,-2.72613090745452e+000°)
1.77827941003890e+000	(6.08156908285105e+001dB,-2.73240201242714e+000°)
1.78237876744807e+000	(6.08156347827944e+001dB,-2.73868748243059e+000°)
1.78648757485203e+000	(6.08155784791982e+001dB,-2.74498734995100e+000°)
1.79060585403527e+000	(6.08155219165383e+001dB,-2.75130164754507e+000°)
1.79473362683250e+000	(6.08154650936264e+001dB,-2.75763040784023e+000°)
1.79887091512876e+000	(6.08154080092681e+001dB,-2.76397366353469e+000°)
1.80301774085955e+000	(6.08153506622640e+001dB,-2.77033144739763e+000°)
1.80717412601090e+000	(6.08152930514090e+001dB,-2.77670379226936e+000°)
1.81134009261958e+000	(6.08152351754927e+001dB,-2.78309073106136e+000°)
1.81551566277311e+000	(6.08151770332988e+001dB,-2.78949229675651e+000°)
1.81970085860996e+000	(6.08151186236060e+001dB,-2.79590852240919e+000°)
1.82389570231961e+000	(6.08150599451870e+001dB,-2.80233944114539e+000°)
1.82810021614272e+000	(6.08150009968090e+001dB,-2.80878508616284e+000°)
1.83231442237119e+000	(6.08149417772338e+001dB,-2.81524549073123e+000°)
1.83653834334832e+000	(6.08148822852171e+001dB,-2.82172068819219e+000°)
1.84077200146893e+000	(6.08148225195094e+001dB,-2.82821071195961e+000°)
1.84501541917945e+000	(6.08147624788552e+001dB,-2.83471559551960e+000°)
1.84926861897805e+000	(6.08147021619934e+001dB,-2.84123537243075e+000°)
1.85353162341479e+000	(6.08146415676571e+001dB,-2.84777007632417e+000°)
1.85780445509167e+000	(6.08145806945737e+001dB,-2.85431974090373e+000°)
1.86208713666284e+000	(6.08145195414647e+001dB,-2.86088439994608e+000°)
1.86637969083464e+000	(6.08144581070459e+001dB,-2.86746408730087e+000°)
1.87068214036577e+000	(6.08143963900270e+001dB,-2.87405883689084e+000°)
1.87499450806739e+000	(6.08143343891122e+001dB,-2.88066868271198e+000°)
1.87931681680324e+000	(6.08142721029993e+001dB,-2.88729365883364e+000°)
1.88364908948977e+000	(6.08142095303807e+001dB,-2.89393379939870e+000°)
1.88799134909627e+000	(6.08141466699425e+001dB,-2.90058913862365e+000°)
